
# Problems

The behavior of the ECU is not following the ISO-TP standard. Bellow is the responses from the ECU which the code must be able to handle.

## UDS Response from ECU

```text

Time Stamp,ID,Extended,Dir,Bus,LEN,D1,D2,D3,D4,D5,D6,D7,D8
0,000007E8,false,Rx,0,8,10,15,61,21,00,00,00,00
0,000007E8,false,Rx,0,8,21,80,02,00,80,00,00,00
0,000007E8,false,Rx,0,8,22,00,00,00,00,00,00,00
0,000007E8,false,Rx,0,8,23,00,00,00,00,00,00,00
0,000007E8,false,Rx,0,8,10,15,61,21,00,00,00,00
0,000007E8,false,Rx,0,8,21,80,02,00,80,00,00,00
0,000007E8,false,Rx,0,8,22,00,00,00,00,00,00,00
0,000007E8,false,Rx,0,8,23,00,00,00,00,00,00,00
0,000007E8,false,Rx,0,8,10,1D,61,21,00,00,00,00
0,000007E8,false,Rx,0,8,21,80,02,00,80,00,00,00
0,000007E8,false,Rx,0,8,22,00,00,00,00,00,00,00
0,000007E8,false,Rx,0,8,23,00,22,00,41,A0,00,00
0,000007E8,false,Rx,0,8,24,00,00,00,00,00,00,00
0,000007E8,false,Rx,0,8,10,1F,61,21,00,00,00,00
0,000007E8,false,Rx,0,8,21,80,02,00,80,00,00,00
0,000007E8,false,Rx,0,8,22,00,00,00,00,00,00,00
0,000007E8,false,Rx,0,8,23,00,25,02,10,00,80,00
0,000007E8,false,Rx,0,8,24,00,04,00,00,00,00,00
0,000007E8,false,Rx,0,8,10,25,61,21,00,00,00,00
0,000007E8,false,Rx,0,8,10,25,61,21,00,00,00,00
0,000007E8,false,Rx,0,8,21,80,02,00,80,00,00,00
0,000007E8,false,Rx,0,8,22,00,00,00,00,00,00,00
0,000007E8,false,Rx,0,8,23,00,37,62,6C,81,E0,80
0,000007E8,false,Rx,0,8,24,00,80,00,00,00,00,00
0,000007E8,false,Rx,0,8,25,00,84,00,00,00,00,00
0,000007E8,false,Rx,0,8,10,1B,61,21,00,00,00,00
0,000007E8,false,Rx,0,8,21,80,02,00,80,00,00,00
0,000007E8,false,Rx,0,8,22,00,00,00,00,00,00,00
0,000007E8,false,Rx,0,8,23,00,39,00,02,00,10,00
0,000007E8,false,Rx,0,8,10,15,61,21,00,00,00,00
0,000007E8,false,Rx,0,8,21,80,02,00,80,00,00,00
0,000007E8,false,Rx,0,8,22,00,00,00,00,00,00,00
0,000007E8,false,Rx,0,8,23,00,00,00,00,00,00,00
0,000007E8,false,Rx,0,8,10,15,61,21,00,00,00,00
0,000007E8,false,Rx,0,8,21,80,02,00,80,00,00,00
0,000007E8,false,Rx,0,8,22,00,00,00,00,00,00,00
0,000007E8,false,Rx,0,8,23,00,00,00,00,00,00,00
0,000007E8,false,Rx,0,8,10,35,61,21,00,00,00,00
0,000007E8,false,Rx,0,8,21,80,02,00,80,00,00,00
0,000007E8,false,Rx,0,8,22,00,00,00,00,00,00,00
0,000007E8,false,Rx,0,8,23,00,51,CD,B5,00,00,01
0,000007E8,false,Rx,0,8,24,00,00,6D,3F,41,41,3C
0,000007E8,false,Rx,0,8,10,15,61,21,00,00,00,00
0,000007E8,false,Rx,0,8,10,15,61,21,00,00,00,00
0,000007E8,false,Rx,0,8,21,80,02,00,80,00,00,00
0,000007E8,false,Rx,0,8,22,00,00,00,00,00,00,00
0,000007E8,false,Rx,0,8,23,00,00,00,00,00,00,00
0,000007E8,false,Rx,0,8,10,15,61,21,00,00,00,00
0,000007E8,false,Rx,0,8,21,80,02,00,80,00,00,00
0,000007E8,false,Rx,0,8,22,00,00,00,00,00,00,00
0,000007E8,false,Rx,0,8,23,00,00,00,00,00,00,00
0,000007E8,false,Rx,0,8,10,30,61,21,00,00,00,00
0,000007E8,false,Rx,0,8,21,80,02,00,80,00,00,00
0,000007E8,false,Rx,0,8,22,00,00,00,00,00,00,00
0,000007E8,false,Rx,0,8,23,00,01,00,00,00,00,52
0,000007E8,false,Rx,0,8,24,43,65,3D,00,00,00,00
0,000007E8,false,Rx,0,8,25,00,00,2C,7E,32,52,2C
0,000007E8,false,Rx,0,8,26,01,00,00,08,B3,34,2F
0,000007E8,false,Rx,0,8,10,1E,61,21,00,00,00,00
0,000007E8,false,Rx,0,8,21,80,02,00,80,00,00,00
0,000007E8,false,Rx,0,8,22,00,00,00,00,00,00,00
0,000007E8,false,Rx,0,8,23,00,03,01,01,80,80,80
0,000007E8,false,Rx,0,8,24,73,8A,00,00,00,00,00
0,000007E8,false,Rx,0,8,10,2C,61,21,00,00,00,00
0,000007E8,false,Rx,0,8,21,80,02,00,80,00,00,00
0,000007E8,false,Rx,0,8,22,00,00,00,00,00,00,00
0,000007E8,false,Rx,0,8,23,00,04,3B,E6,7F,E7,69
0,000007E8,false,Rx,0,8,24,71,7F,FB,69,99,7F,E7
0,000007E8,false,Rx,0,8,25,80,00,7F,FB,80,00,00
0,000007E8,false,Rx,0,8,26,FF,00,FF,00,00,00,00
0,000007E8,false,Rx,0,8,10,20,61,21,00,00,00,00
0,000007E8,false,Rx,0,8,21,80,02,00,80,00,00,00
0,000007E8,false,Rx,0,8,22,00,00,00,00,00,00,00
0,000007E8,false,Rx,0,8,23,00,06,81,07,21,21,33
0,000007E8,false,Rx,0,8,24,06,00,00,00,0B,00,00
0,000007E8,false,Rx,0,8,10,15,61,21,00,00,00,00
0,000007E8,false,Rx,0,8,21,80,02,00,80,00,00,00
0,000007E8,false,Rx,0,8,22,00,00,00,00,00,00,00
0,000007E8,false,Rx,0,8,23,00,00,00,00,00,00,00
0,000007E8,false,Rx,0,8,10,15,61,21,00,00,00,00
0,000007E8,false,Rx,0,8,21,80,02,00,80,00,00,00
0,000007E8,false,Rx,0,8,22,00,00,00,00,00,00,00
0,000007E8,false,Rx,0,8,23,00,00,00,00,00,00,00
0,000007E8,false,Rx,0,8,10,1D,61,21,00,00,00,00
0,000007E8,false,Rx,0,8,21,80,02,00,80,00,00,00
0,000007E8,false,Rx,0,8,22,00,00,00,00,00,00,00
0,000007E8,false,Rx,0,8,23,00,22,00,41,A0,00,00
0,000007E8,false,Rx,0,8,24,00,00,00,00,00,00,00
0,000007E8,false,Rx,0,8,10,1F,61,21,00,00,00,00
0,000007E8,false,Rx,0,8,21,80,02,00,80,00,00,00
0,000007E8,false,Rx,0,8,22,00,00,00,00,00,00,00
0,000007E8,false,Rx,0,8,23,00,25,02,10,00,80,00
0,000007E8,false,Rx,0,8,24,00,04,00,00,00,00,00
0,000007E8,false,Rx,0,8,10,25,61,21,00,00,00,00
0,000007E8,false,Rx,0,8,21,80,02,00,80,00,00,00
0,000007E8,false,Rx,0,8,22,00,00,00,00,00,00,00
0,000007E8,false,Rx,0,8,23,00,37,62,6C,81,E0,80
0,000007E8,false,Rx,0,8,24,00,80,00,00,00,00,00
0,000007E8,false,Rx,0,8,25,00,84,00,00,00,00,00
0,000007E8,false,Rx,0,8,10,1B,61,21,00,00,00,00
0,000007E8,false,Rx,0,8,21,80,02,00,80,00,00,00
0,000007E8,false,Rx,0,8,22,00,00,00,00,00,00,00
0,000007E8,false,Rx,0,8,23,00,39,00,02,00,10,00
0,000007E8,false,Rx,0,8,10,15,61,21,00,00,00,00
0,000007E8,false,Rx,0,8,21,80,02,00,80,00,00,00
0,000007E8,false,Rx,0,8,22,00,00,00,00,00,00,00
0,000007E8,false,Rx,0,8,23,00,00,00,00,00,00,00
0,000007E8,false,Rx,0,8,10,15,61,21,00,00,00,00
0,000007E8,false,Rx,0,8,21,80,02,00,80,00,00,00
0,000007E8,false,Rx,0,8,22,00,00,00,00,00,00,00
0,000007E8,false,Rx,0,8,23,00,00,00,00,00,00,00
0,000007E8,false,Rx,0,8,10,35,61,21,00,00,00,00
0,000007E8,false,Rx,0,8,21,80,02,00,80,00,00,00
0,000007E8,false,Rx,0,8,22,00,00,00,00,00,00,00
0,000007E8,false,Rx,0,8,23,00,51,CE,2D,00,00,01
0,000007E8,false,Rx,0,8,24,00,00,6D,3F,41,41,3C
0,000007E8,false,Rx,0,8,25,3B,00,00,1A,C8,02,8B
0,000007E8,false,Rx,0,8,26,00,00,80,00,91,48,80
0,000007E8,false,Rx,0,8,27,00,80,00,80,00,00,00
0,000007E8,false,Rx,0,8,10,15,61,21,00,00,00,00
0,000007E8,false,Rx,0,8,21,80,02,00,80,00,00,00
0,000007E8,false,Rx,0,8,22,00,00,00,00,00,00,00
0,000007E8,false,Rx,0,8,23,00,00,00,00,00,00,00
0,000007E8,false,Rx,0,8,10,15,61,21,00,00,00,00
0,000007E8,false,Rx,0,8,21,80,02,00,80,00,00,00
0,000007E8,false,Rx,0,8,22,00,00,00,00,00,00,00
0,000007E8,false,Rx,0,8,23,00,00,00,00,00,00,00
0,000007E8,false,Rx,0,8,10,15,61,21,00,00,00,00
0,000007E8,false,Rx,0,8,21,80,02,00,80,00,00,00
0,000007E8,false,Rx,0,8,22,00,00,00,00,00,00,00
0,000007E8,false,Rx,0,8,23,00,00,00,00,00,00,00
0,000007E8,false,Rx,0,8,10,30,61,21,00,00,00,00
0,000007E8,false,Rx,0,8,21,80,02,00,80,00,00,00
0,000007E8,false,Rx,0,8,22,00,00,00,00,00,00,00
0,000007E8,false,Rx,0,8,23,00,01,00,00,00,00,52
0,000007E8,false,Rx,0,8,24,43,65,3D,00,00,00,00
0,000007E8,false,Rx,0,8,25,00,00,2C,7E,32,52,2C
0,000007E8,false,Rx,0,8,26,01,00,00,08,B3,34,2F
0,000007E8,false,Rx,0,8,10,1E,61,21,00,00,00,00
0,000007E8,false,Rx,0,8,21,80,02,00,80,00,00,00
0,000007E8,false,Rx,0,8,22,00,00,00,00,00,00,00
0,000007E8,false,Rx,0,8,23,00,03,01,01,80,80,80
0,000007E8,false,Rx,0,8,24,73,8A,00,00,00,00,00
0,000007E8,false,Rx,0,8,10,2C,61,21,00,00,00,00
0,000007E8,false,Rx,0,8,21,80,02,00,80,00,00,00
0,000007E8,false,Rx,0,8,22,00,00,00,00,00,00,00
0,000007E8,false,Rx,0,8,23,00,04,3B,E6,7F,E7,69
0,000007E8,false,Rx,0,8,24,71,7F,EE,69,99,7F,E7
0,000007E8,false,Rx,0,8,25,80,00,7F,EE,80,00,00
0,000007E8,false,Rx,0,8,26,FF,00,FF,00,00,00,00
0,000007E8,false,Rx,0,8,10,20,61,21,00,00,00,00
0,000007E8,false,Rx,0,8,21,80,02,00,80,00,00,00
0,000007E8,false,Rx,0,8,22,00,00,00,00,00,00,00
0,000007E8,false,Rx,0,8,23,00,06,81,07,21,21,33
0,000007E8,false,Rx,0,8,24,06,00,00,00,0B,00,00
0,000007E8,false,Rx,0,8,10,15,61,21,00,00,00,00
0,000007E8,false,Rx,0,8,21,80,02,00,80,00,00,00
0,000007E8,false,Rx,0,8,22,00,00,00,00,00,00,00
0,000007E8,false,Rx,0,8,23,00,00,00,00,00,00,00
0,000007E8,false,Rx,0,8,10,15,61,21,00,00,00,00
0,000007E8,false,Rx,0,8,21,80,02,00,80,00,00,00
0,000007E8,false,Rx,0,8,22,00,00,00,00,00,00,00
0,000007E8,false,Rx,0,8,23,00,00,00,00,00,00,00
0,000007E8,false,Rx,0,8,10,1D,61,21,00,00,00,00
0,000007E8,false,Rx,0,8,21,80,02,00,80,00,00,00
0,000007E8,false,Rx,0,8,22,00,00,00,00,00,00,00
0,000007E8,false,Rx,0,8,23,00,22,00,41,A0,00,00
0,000007E8,false,Rx,0,8,24,00,00,00,00,00,00,00
0,000007E8,false,Rx,0,8,10,1F,61,21,00,00,00,00
0,000007E8,false,Rx,0,8,21,80,02,00,80,00,00,00
0,000007E8,false,Rx,0,8,22,00,00,00,00,00,00,00
0,000007E8,false,Rx,0,8,23,00,25,02,10,00,80,00
0,000007E8,false,Rx,0,8,24,00,04,00,00,00,00,00
0,000007E8,false,Rx,0,8,10,25,61,21,00,00,00,00
0,000007E8,false,Rx,0,8,21,80,02,00,80,00,00,00
0,000007E8,false,Rx,0,8,22,00,00,00,00,00,00,00
0,000007E8,false,Rx,0,8,23,00,37,62,6C,81,E0,80
0,000007E8,false,Rx,0,8,24,00,80,00,00,00,00,00
0,000007E8,false,Rx,0,8,25,00,84,00,00,00,00,00
0,000007E8,false,Rx,0,8,10,1B,61,21,00,00,00,00
0,000007E8,false,Rx,0,8,21,80,02,00,80,00,00,00
0,000007E8,false,Rx,0,8,22,00,00,00,00,00,00,00
0,000007E8,false,Rx,0,8,23,00,39,00,02,00,10,00
0,000007E8,false,Rx,0,8,10,15,61,21,00,00,00,00
0,000007E8,false,Rx,0,8,21,80,02,00,80,00,00,00
0,000007E8,false,Rx,0,8,22,00,00,00,00,00,00,00
0,000007E8,false,Rx,0,8,23,00,00,00,00,00,00,00
0,000007E8,false,Rx,0,8,10,15,61,21,00,00,00,00
0,000007E8,false,Rx,0,8,21,80,02,00,80,00,00,00
0,000007E8,false,Rx,0,8,22,00,00,00,00,00,00,00
0,000007E8,false,Rx,0,8,23,00,00,00,00,00,00,00
0,000007E8,false,Rx,0,8,10,35,61,21,00,00,00,00
0,000007E8,false,Rx,0,8,21,80,02,00,80,00,00,00
0,000007E8,false,Rx,0,8,22,00,00,00,00,00,00,00
0,000007E8,false,Rx,0,8,23,00,51,CE,42,00,00,01
0,000007E8,false,Rx,0,8,24,00,00,6D,3F,41,41,3C
0,000007E8,false,Rx,0,8,25,3B,00,00,1A,C8,02,8B
0,000007E8,false,Rx,0,8,26,00,00,80,00,91,48,80
0,000007E8,false,Rx,0,8,27,00,80,00,80,00,00,00
0,000007E8,false,Rx,0,8,10,15,61,21,00,00,00,00
0,000007E8,false,Rx,0,8,21,80,02,00,80,00,00,00
0,000007E8,false,Rx,0,8,22,00,00,00,00,00,00,00
0,000007E8,false,Rx,0,8,23,00,00,00,00,00,00,00
0,000007E8,false,Rx,0,8,10,15,61,21,00,00,00,00
0,000007E8,false,Rx,0,8,21,80,02,00,80,00,00,00
0,000007E8,false,Rx,0,8,22,00,00,00,00,00,00,00
0,000007E8,false,Rx,0,8,23,00,00,00,00,00,00,00
0,000007E8,false,Rx,0,8,10,15,61,21,00,00,00,00
0,000007E8,false,Rx,0,8,21,80,02,00,80,00,00,00
0,000007E8,false,Rx,0,8,22,00,00,00,00,00,00,00
0,000007E8,false,Rx,0,8,23,00,00,00,00,00,00,00
0,000007E8,false,Rx,0,8,10,30,61,21,00,00,00,00
0,000007E8,false,Rx,0,8,21,80,02,00,80,00,00,00
0,000007E8,false,Rx,0,8,22,00,00,00,00,00,00,00
0,000007E8,false,Rx,0,8,23,00,01,00,00,00,00,52
0,000007E8,false,Rx,0,8,24,43,65,3D,00,00,00,00
0,000007E8,false,Rx,0,8,25,00,00,2C,7E,32,52,2C
0,000007E8,false,Rx,0,8,26,01,00,00,08,B3,34,2F
0,000007E8,false,Rx,0,8,10,1E,61,21,00,00,00,00
0,000007E8,false,Rx,0,8,21,80,02,00,80,00,00,00
0,000007E8,false,Rx,0,8,22,00,00,00,00,00,00,00
0,000007E8,false,Rx,0,8,23,00,03,01,01,80,80,80
0,000007E8,false,Rx,0,8,24,73,8A,00,00,00,00,00
0,000007E8,false,Rx,0,8,10,2C,61,21,00,00,00,00
0,000007E8,false,Rx,0,8,21,80,02,00,80,00,00,00
0,000007E8,false,Rx,0,8,22,00,00,00,00,00,00,00
0,000007E8,false,Rx,0,8,23,00,04,3B,E6,7F,E7,69
0,000007E8,false,Rx,0,8,24,71,7F,EC,69,99,7F,E7
0,000007E8,false,Rx,0,8,25,80,00,7F,EC,80,00,00
0,000007E8,false,Rx,0,8,26,FF,00,FF,00,00,00,00
0,000007E8,false,Rx,0,8,10,20,61,21,00,00,00,00
0,000007E8,false,Rx,0,8,21,80,02,00,80,00,00,00
0,000007E8,false,Rx,0,8,22,00,00,00,00,00,00,00
0,000007E8,false,Rx,0,8,23,00,06,81,07,21,21,33
0,000007E8,false,Rx,0,8,24,06,00,00,00,0B,00,00
0,000007E8,false,Rx,0,8,10,15,61,21,00,00,00,00
0,000007E8,false,Rx,0,8,21,80,02,00,80,00,00,00
0,000007E8,false,Rx,0,8,22,00,00,00,00,00,00,00
0,000007E8,false,Rx,0,8,23,00,00,00,00,00,00,00
0,000007E8,false,Rx,0,8,10,15,61,21,00,00,00,00
0,000007E8,false,Rx,0,8,21,80,02,00,80,00,00,00
0,000007E8,false,Rx,0,8,22,00,00,00,00,00,00,00
0,000007E8,false,Rx,0,8,23,00,00,00,00,00,00,00
0,000007E8,false,Rx,0,8,10,1D,61,21,00,00,00,00
0,000007E8,false,Rx,0,8,21,80,02,00,80,00,00,00
0,000007E8,false,Rx,0,8,22,00,00,00,00,00,00,00
0,000007E8,false,Rx,0,8,23,00,22,00,41,A0,00,00
0,000007E8,false,Rx,0,8,24,00,00,00,00,00,00,00
0,000007E8,false,Rx,0,8,10,1F,61,21,00,00,00,00
0,000007E8,false,Rx,0,8,21,80,02,00,80,00,00,00
0,000007E8,false,Rx,0,8,22,00,00,00,00,00,00,00
0,000007E8,false,Rx,0,8,10,25,61,21,00,00,00,00
0,000007E8,false,Rx,0,8,10,1B,61,21,00,00,00,00
0,000007E8,false,Rx,0,8,21,80,02,00,80,00,00,00
0,000007E8,false,Rx,0,8,22,00,00,00,00,00,00,00
0,000007E8,false,Rx,0,8,23,00,39,00,02,00,10,00
0,000007E8,false,Rx,0,8,10,15,61,21,00,00,00,00
0,000007E8,false,Rx,0,8,21,80,02,00,80,00,00,00
0,000007E8,false,Rx,0,8,22,00,00,00,00,00,00,00
0,000007E8,false,Rx,0,8,23,00,00,00,00,00,00,00
0,000007E8,false,Rx,0,8,10,15,61,21,00,00,00,00
0,000007E8,false,Rx,0,8,21,80,02,00,80,00,00,00
0,000007E8,false,Rx,0,8,22,00,00,00,00,00,00,00
0,000007E8,false,Rx,0,8,23,00,00,00,00,00,00,00
0,000007E8,false,Rx,0,8,10,35,61,21,00,00,00,00
0,000007E8,false,Rx,0,8,21,80,02,00,80,00,00,00
0,000007E8,false,Rx,0,8,22,00,00,00,00,00,00,00
0,000007E8,false,Rx,0,8,23,00,51,CE,B8,00,00,01
0,000007E8,false,Rx,0,8,24,00,00,6D,3F,41,41,3C
0,000007E8,false,Rx,0,8,25,3B,00,00,1A,C8,02,8B
0,000007E8,false,Rx,0,8,26,00,00,80,00,91,48,80
0,000007E8,false,Rx,0,8,27,00,80,00,80,00,00,00
0,000007E8,false,Rx,0,8,10,15,61,21,00,00,00,00
0,000007E8,false,Rx,0,8,21,80,02,00,80,00,00,00
0,000007E8,false,Rx,0,8,22,00,00,00,00,00,00,00
0,000007E8,false,Rx,0,8,23,00,00,00,00,00,00,00
0,000007E8,false,Rx,0,8,10,15,61,21,00,00,00,00
0,000007E8,false,Rx,0,8,21,80,02,00,80,00,00,00
0,000007E8,false,Rx,0,8,22,00,00,00,00,00,00,00
0,000007E8,false,Rx,0,8,23,00,00,00,00,00,00,00
0,000007E8,false,Rx,0,8,10,15,61,21,00,00,00,00
0,000007E8,false,Rx,0,8,21,80,02,00,80,00,00,00
0,000007E8,false,Rx,0,8,22,00,00,00,00,00,00,00
0,000007E8,false,Rx,0,8,23,00,00,00,00,00,00,00
0,000007E8,false,Rx,0,8,10,30,61,21,00,00,00,00
0,000007E8,false,Rx,0,8,21,80,02,00,80,00,00,00
0,000007E8,false,Rx,0,8,22,00,00,00,00,00,00,00
0,000007E8,false,Rx,0,8,23,00,01,00,00,00,00,52
0,000007E8,false,Rx,0,8,24,43,65,3D,00,00,00,00
0,000007E8,false,Rx,0,8,25,00,00,2C,7E,32,52,2C
0,000007E8,false,Rx,0,8,26,01,00,00,08,B3,34,2F
0,000007E8,false,Rx,0,8,10,1E,61,21,00,00,00,00
0,000007E8,false,Rx,0,8,21,80,02,00,80,00,00,00
0,000007E8,false,Rx,0,8,10,2C,61,21,00,00,00,00
0,000007E8,false,Rx,0,8,21,80,02,00,80,00,00,00
0,000007E8,false,Rx,0,8,22,00,00,00,00,00,00,00
0,000007E8,false,Rx,0,8,23,00,04,3B,E6,7F,E7,69
0,000007E8,false,Rx,0,8,24,71,7F,F5,69,99,7F,E7
0,000007E8,false,Rx,0,8,25,80,00,7F,F5,80,00,00
0,000007E8,false,Rx,0,8,26,FF,00,FF,00,00,00,00
0,000007E8,false,Rx,0,8,10,20,61,21,00,00,00,00
0,000007E8,false,Rx,0,8,21,80,02,00,80,00,00,00
0,000007E8,false,Rx,0,8,22,00,00,00,00,00,00,00
0,000007E8,false,Rx,0,8,23,00,06,81,07,21,21,33
0,000007E8,false,Rx,0,8,24,06,00,00,00,0B,00,00
0,000007E8,false,Rx,0,8,10,15,61,21,00,00,00,00
0,000007E8,false,Rx,0,8,21,80,02,00,80,00,00,00
0,000007E8,false,Rx,0,8,22,00,00,00,00,00,00,00
0,000007E8,false,Rx,0,8,23,00,00,00,00,00,00,00
0,000007E8,false,Rx,0,8,10,15,61,21,00,00,00,00
0,000007E8,false,Rx,0,8,21,80,02,00,80,00,00,00
0,000007E8,false,Rx,0,8,10,1D,61,21,00,00,00,00
0,000007E8,false,Rx,0,8,21,80,02,00,80,00,00,00
0,000007E8,false,Rx,0,8,22,00,00,00,00,00,00,00
0,000007E8,false,Rx,0,8,23,00,22,00,41,A0,00,00
0,000007E8,false,Rx,0,8,24,00,00,00,00,00,00,00
0,000007E8,false,Rx,0,8,10,1F,61,21,00,00,00,00
0,000007E8,false,Rx,0,8,21,80,02,00,80,00,00,00
0,000007E8,false,Rx,0,8,22,00,00,00,00,00,00,00
0,000007E8,false,Rx,0,8,23,00,25,02,10,00,80,00
0,000007E8,false,Rx,0,8,24,00,04,00,00,00,00,00
0,000007E8,false,Rx,0,8,10,25,61,21,00,00,00,00
0,000007E8,false,Rx,0,8,21,80,02,00,80,00,00,00
0,000007E8,false,Rx,0,8,22,00,00,00,00,00,00,00
0,000007E8,false,Rx,0,8,23,00,37,62,6C,81,E0,80
0,000007E8,false,Rx,0,8,24,00,80,00,00,00,00,00
0,000007E8,false,Rx,0,8,25,00,84,00,00,00,00,00
0,000007E8,false,Rx,0,8,10,1B,61,21,00,00,00,00
0,000007E8,false,Rx,0,8,21,80,02,00,80,00,00,00
0,000007E8,false,Rx,0,8,22,00,00,00,00,00,00,00
0,000007E8,false,Rx,0,8,23,00,39,00,02,00,10,00
0,000007E8,false,Rx,0,8,10,15,61,21,00,00,00,00
0,000007E8,false,Rx,0,8,21,80,02,00,80,00,00,00
0,000007E8,false,Rx,0,8,22,00,00,00,00,00,00,00
0,000007E8,false,Rx,0,8,23,00,00,00,00,00,00,00
0,000007E8,false,Rx,0,8,10,15,61,21,00,00,00,00
0,000007E8,false,Rx,0,8,21,80,02,00,80,00,00,00
0,000007E8,false,Rx,0,8,22,00,00,00,00,00,00,00
0,000007E8,false,Rx,0,8,23,00,00,00,00,00,00,00
0,000007E8,false,Rx,0,8,10,35,61,21,00,00,00,00
0,000007E8,false,Rx,0,8,21,80,02,00,80,00,00,00
0,000007E8,false,Rx,0,8,22,00,00,00,00,00,00,00
0,000007E8,false,Rx,0,8,23,00,51,CE,CB,00,00,01
0,000007E8,false,Rx,0,8,24,00,00,6D,3F,41,41,3C
0,000007E8,false,Rx,0,8,25,3B,00,00,1A,C8,02,8B
0,000007E8,false,Rx,0,8,26,00,00,80,00,91,48,80
0,000007E8,false,Rx,0,8,10,15,61,21,00,00,00,00
0,000007E8,false,Rx,0,8,21,80,02,00,80,00,00,00
0,000007E8,false,Rx,0,8,22,00,00,00,00,00,00,00
0,000007E8,false,Rx,0,8,10,15,61,21,00,00,00,00
0,000007E8,false,Rx,0,8,21,80,02,00,80,00,00,00
0,000007E8,false,Rx,0,8,22,00,00,00,00,00,00,00
0,000007E8,false,Rx,0,8,10,15,61,21,00,00,00,00
0,000007E8,false,Rx,0,8,21,80,02,00,80,00,00,00
0,000007E8,false,Rx,0,8,22,00,00,00,00,00,00,00
0,000007E8,false,Rx,0,8,23,00,00,00,00,00,00,00
0,000007E8,false,Rx,0,8,10,30,61,21,00,00,00,00
0,000007E8,false,Rx,0,8,21,80,02,00,80,00,00,00
0,000007E8,false,Rx,0,8,22,00,00,00,00,00,00,00
0,000007E8,false,Rx,0,8,23,00,01,00,00,00,00,52
0,000007E8,false,Rx,0,8,24,43,65,3D,00,00,00,00
0,000007E8,false,Rx,0,8,10,1E,61,21,00,00,00,00
0,000007E8,false,Rx,0,8,21,80,02,00,80,00,00,00
0,000007E8,false,Rx,0,8,22,00,00,00,00,00,00,00
0,000007E8,false,Rx,0,8,10,2C,61,21,00,00,00,00
0,000007E8,false,Rx,0,8,21,80,02,00,80,00,00,00
0,000007E8,false,Rx,0,8,22,00,00,00,00,00,00,00
0,000007E8,false,Rx,0,8,23,00,04,3B,E6,7F,E7,69
0,000007E8,false,Rx,0,8,24,71,7F,FB,69,99,7F,E7
0,000007E8,false,Rx,0,8,25,80,00,7F,FB,80,00,00
0,000007E8,false,Rx,0,8,26,FF,00,FF,00,00,00,00
0,000007E8,false,Rx,0,8,10,20,61,21,00,00,00,00
0,000007E8,false,Rx,0,8,21,80,02,00,80,00,00,00
0,000007E8,false,Rx,0,8,22,00,00,00,00,00,00,00
0,000007E8,false,Rx,0,8,23,00,06,81,07,21,21,33
0,000007E8,false,Rx,0,8,24,06,00,00,00,0B,00,00
0,000007E8,false,Rx,0,8,10,15,61,21,00,00,00,00
0,000007E8,false,Rx,0,8,21,80,02,00,80,00,00,00
0,000007E8,false,Rx,0,8,22,00,00,00,00,00,00,00
0,000007E8,false,Rx,0,8,23,00,00,00,00,00,00,00
0,000007E8,false,Rx,0,8,10,15,61,21,00,00,00,00
0,000007E8,false,Rx,0,8,21,80,02,00,80,00,00,00
0,000007E8,false,Rx,0,8,22,00,00,00,00,00,00,00
0,000007E8,false,Rx,0,8,23,00,00,00,00,00,00,00
0,000007E8,false,Rx,0,8,10,1D,61,21,00,00,00,00
0,000007E8,false,Rx,0,8,21,80,02,00,80,00,00,00
0,000007E8,false,Rx,0,8,22,00,00,00,00,00,00,00
0,000007E8,false,Rx,0,8,23,00,22,00,41,A0,00,00
0,000007E8,false,Rx,0,8,24,00,00,00,00,00,00,00
0,000007E8,false,Rx,0,8,10,1F,61,21,00,00,00,00
0,000007E8,false,Rx,0,8,21,80,02,00,80,00,00,00
0,000007E8,false,Rx,0,8,22,00,00,00,00,00,00,00
0,000007E8,false,Rx,0,8,23,00,25,02,10,00,80,00
0,000007E8,false,Rx,0,8,24,00,04,00,00,00,00,00
0,000007E8,false,Rx,0,8,10,25,61,21,00,00,00,00
0,000007E8,false,Rx,0,8,21,80,02,00,80,00,00,00
0,000007E8,false,Rx,0,8,22,00,00,00,00,00,00,00
0,000007E8,false,Rx,0,8,23,00,37,62,6C,81,E0,80
0,000007E8,false,Rx,0,8,24,00,80,00,00,00,00,00
0,000007E8,false,Rx,0,8,25,00,84,00,00,00,00,00
0,000007E8,false,Rx,0,8,10,1B,61,21,00,00,00,00
0,000007E8,false,Rx,0,8,21,80,02,00,80,00,00,00
0,000007E8,false,Rx,0,8,22,00,00,00,00,00,00,00
0,000007E8,false,Rx,0,8,23,00,39,00,02,00,10,00
0,000007E8,false,Rx,0,8,10,15,61,21,00,00,00,00
0,000007E8,false,Rx,0,8,21,80,02,00,80,00,00,00
0,000007E8,false,Rx,0,8,22,00,00,00,00,00,00,00
0,000007E8,false,Rx,0,8,23,00,00,00,00,00,00,00
0,000007E8,false,Rx,0,8,10,15,61,21,00,00,00,00
0,000007E8,false,Rx,0,8,21,80,02,00,80,00,00,00
0,000007E8,false,Rx,0,8,22,00,00,00,00,00,00,00
0,000007E8,false,Rx,0,8,23,00,00,00,00,00,00,00
0,000007E8,false,Rx,0,8,10,35,61,21,00,00,00,00
0,000007E8,false,Rx,0,8,21,80,02,00,80,00,00,00
0,000007E8,false,Rx,0,8,22,00,00,00,00,00,00,00
0,000007E8,false,Rx,0,8,23,00,51,CE,DE,00,00,01
0,000007E8,false,Rx,0,8,24,00,00,6D,3F,41,41,3C
0,000007E8,false,Rx,0,8,25,3B,00,00,1A,C8,02,8B
0,000007E8,false,Rx,0,8,10,15,61,21,00,00,00,00
0,000007E8,false,Rx,0,8,21,80,02,00,80,00,00,00
0,000007E8,false,Rx,0,8,22,00,00,00,00,00,00,00
0,000007E8,false,Rx,0,8,23,00,00,00,00,00,00,00
0,000007E8,false,Rx,0,8,10,15,61,21,00,00,00,00
0,000007E8,false,Rx,0,8,10,15,61,21,00,00,00,00
0,000007E8,false,Rx,0,8,21,80,02,00,80,00,00,00
0,000007E8,false,Rx,0,8,22,00,00,00,00,00,00,00
0,000007E8,false,Rx,0,8,23,00,00,00,00,00,00,00
0,000007E8,false,Rx,0,8,10,15,61,21,00,00,00,00
0,000007E8,false,Rx,0,8,21,80,02,00,80,00,00,00
0,000007E8,false,Rx,0,8,22,00,00,00,00,00,00,00
0,000007E8,false,Rx,0,8,23,00,00,00,00,00,00,00
0,000007E8,false,Rx,0,8,10,30,61,21,00,00,00,00
0,000007E8,false,Rx,0,8,21,80,02,00,80,00,00,00
0,000007E8,false,Rx,0,8,22,00,00,00,00,00,00,00
0,000007E8,false,Rx,0,8,23,00,01,00,00,00,00,52
0,000007E8,false,Rx,0,8,24,43,65,3D,00,00,00,00
0,000007E8,false,Rx,0,8,25,00,00,2C,7E,32,52,2C
0,000007E8,false,Rx,0,8,26,01,00,00,08,B3,34,2F
0,000007E8,false,Rx,0,8,10,1E,61,21,00,00,00,00
0,000007E8,false,Rx,0,8,10,1E,61,21,00,00,00,00
0,000007E8,false,Rx,0,8,21,80,02,00,80,00,00,00
0,000007E8,false,Rx,0,8,22,00,00,00,00,00,00,00
0,000007E8,false,Rx,0,8,23,00,03,01,01,80,80,80
0,000007E8,false,Rx,0,8,24,73,8A,00,00,00,00,00
0,000007E8,false,Rx,0,8,10,2C,61,21,00,00,00,00
0,000007E8,false,Rx,0,8,21,80,02,00,80,00,00,00
0,000007E8,false,Rx,0,8,22,00,00,00,00,00,00,00
0,000007E8,false,Rx,0,8,10,20,61,21,00,00,00,00
0,000007E8,false,Rx,0,8,21,80,02,00,80,00,00,00
0,000007E8,false,Rx,0,8,22,00,00,00,00,00,00,00
0,000007E8,false,Rx,0,8,10,15,61,21,00,00,00,00
0,000007E8,false,Rx,0,8,21,80,02,00,80,00,00,00
0,000007E8,false,Rx,0,8,22,00,00,00,00,00,00,00
0,000007E8,false,Rx,0,8,23,00,00,00,00,00,00,00
0,000007E8,false,Rx,0,8,10,15,61,21,00,00,00,00
0,000007E8,false,Rx,0,8,21,80,02,00,80,00,00,00
0,000007E8,false,Rx,0,8,22,00,00,00,00,00,00,00
0,000007E8,false,Rx,0,8,23,00,00,00,00,00,00,00
0,000007E8,false,Rx,0,8,10,1D,61,21,00,00,00,00
0,000007E8,false,Rx,0,8,21,80,02,00,80,00,00,00
0,000007E8,false,Rx,0,8,22,00,00,00,00,00,00,00
0,000007E8,false,Rx,0,8,23,00,22,00,41,A0,00,00
0,000007E8,false,Rx,0,8,24,00,00,00,00,00,00,00
0,000007E8,false,Rx,0,8,10,1F,61,21,00,00,00,00
0,000007E8,false,Rx,0,8,21,80,02,00,80,00,00,00
0,000007E8,false,Rx,0,8,22,00,00,00,00,00,00,00
0,000007E8,false,Rx,0,8,23,00,25,02,10,00,80,00
0,000007E8,false,Rx,0,8,24,00,04,00,00,00,00,00
0,000007E8,false,Rx,0,8,10,25,61,21,00,00,00,00
0,000007E8,false,Rx,0,8,21,80,02,00,80,00,00,00
0,000007E8,false,Rx,0,8,22,00,00,00,00,00,00,00
0,000007E8,false,Rx,0,8,23,00,37,62,6C,81,E0,80
0,000007E8,false,Rx,0,8,24,00,80,00,00,00,00,00
0,000007E8,false,Rx,0,8,25,00,84,00,00,00,00,00
0,000007E8,false,Rx,0,8,10,1B,61,21,00,00,00,00
0,000007E8,false,Rx,0,8,21,80,02,00,80,00,00,00
0,000007E8,false,Rx,0,8,22,00,00,00,00,00,00,00
0,000007E8,false,Rx,0,8,23,00,39,00,02,00,10,00
0,000007E8,false,Rx,0,8,10,15,61,21,00,00,00,00
0,000007E8,false,Rx,0,8,21,80,02,00,80,00,00,00
0,000007E8,false,Rx,0,8,22,00,00,00,00,00,00,00
0,000007E8,false,Rx,0,8,23,00,00,00,00,00,00,00
0,000007E8,false,Rx,0,8,10,15,61,21,00,00,00,00
0,000007E8,false,Rx,0,8,21,80,02,00,80,00,00,00
0,000007E8,false,Rx,0,8,22,00,00,00,00,00,00,00
0,000007E8,false,Rx,0,8,23,00,00,00,00,00,00,00
0,000007E8,false,Rx,0,8,10,35,61,21,00,00,00,00
0,000007E8,false,Rx,0,8,10,15,61,21,00,00,00,00
0,000007E8,false,Rx,0,8,21,80,02,00,80,00,00,00
0,000007E8,false,Rx,0,8,22,00,00,00,00,00,00,00
0,000007E8,false,Rx,0,8,23,00,00,00,00,00,00,00
0,000007E8,false,Rx,0,8,10,15,61,21,00,00,00,00
0,000007E8,false,Rx,0,8,21,80,02,00,80,00,00,00
0,000007E8,false,Rx,0,8,22,00,00,00,00,00,00,00
0,000007E8,false,Rx,0,8,23,00,00,00,00,00,00,00
0,000007E8,false,Rx,0,8,10,15,61,21,00,00,00,00
0,000007E8,false,Rx,0,8,21,80,02,00,80,00,00,00
0,000007E8,false,Rx,0,8,22,00,00,00,00,00,00,00
0,000007E8,false,Rx,0,8,23,00,00,00,00,00,00,00
0,000007E8,false,Rx,0,8,10,30,61,21,00,00,00,00
0,000007E8,false,Rx,0,8,21,80,02,00,80,00,00,00
0,000007E8,false,Rx,0,8,22,00,00,00,00,00,00,00
0,000007E8,false,Rx,0,8,23,00,01,00,00,00,00,52
0,000007E8,false,Rx,0,8,24,43,65,3D,00,00,00,00
0,000007E8,false,Rx,0,8,25,00,00,2C,7E,32,52,2C
0,000007E8,false,Rx,0,8,26,01,00,00,08,B3,34,2F
0,000007E8,false,Rx,0,8,10,1E,61,21,00,00,00,00
0,000007E8,false,Rx,0,8,21,80,02,00,80,00,00,00
0,000007E8,false,Rx,0,8,22,00,00,00,00,00,00,00
0,000007E8,false,Rx,0,8,23,00,03,01,01,80,80,80
0,000007E8,false,Rx,0,8,24,73,8A,00,00,00,00,00
0,000007E8,false,Rx,0,8,10,2C,61,21,00,00,00,00
0,000007E8,false,Rx,0,8,21,80,02,00,80,00,00,00
0,000007E8,false,Rx,0,8,22,00,00,00,00,00,00,00
0,000007E8,false,Rx,0,8,23,00,04,3B,E6,7F,E7,69
0,000007E8,false,Rx,0,8,24,71,7F,F9,69,99,7F,E7
0,000007E8,false,Rx,0,8,25,80,00,7F,F9,80,00,00
0,000007E8,false,Rx,0,8,26,FF,00,FF,00,00,00,00
0,000007E8,false,Rx,0,8,10,20,61,21,00,00,00,00
0,000007E8,false,Rx,0,8,21,80,02,00,80,00,00,00
0,000007E8,false,Rx,0,8,22,00,00,00,00,00,00,00
0,000007E8,false,Rx,0,8,23,00,06,81,07,21,21,33
0,000007E8,false,Rx,0,8,24,06,00,00,00,0B,00,00
0,000007E8,false,Rx,0,8,10,15,61,21,00,00,00,00
0,000007E8,false,Rx,0,8,21,80,02,00,80,00,00,00
0,000007E8,false,Rx,0,8,22,00,00,00,00,00,00,00
0,000007E8,false,Rx,0,8,23,00,00,00,00,00,00,00
0,000007E8,false,Rx,0,8,10,15,61,21,00,00,00,00
0,000007E8,false,Rx,0,8,21,80,02,00,80,00,00,00
0,000007E8,false,Rx,0,8,22,00,00,00,00,00,00,00
0,000007E8,false,Rx,0,8,23,00,00,00,00,00,00,00
0,000007E8,false,Rx,0,8,10,1D,61,21,00,00,00,00
0,000007E8,false,Rx,0,8,21,80,02,00,80,00,00,00
0,000007E8,false,Rx,0,8,22,00,00,00,00,00,00,00
0,000007E8,false,Rx,0,8,23,00,22,00,41,A0,00,00
0,000007E8,false,Rx,0,8,24,00,00,00,00,00,00,00
0,000007E8,false,Rx,0,8,10,1F,61,21,00,00,00,00
0,000007E8,false,Rx,0,8,21,80,02,00,80,00,00,00
0,000007E8,false,Rx,0,8,22,00,00,00,00,00,00,00
0,000007E8,false,Rx,0,8,23,00,25,02,10,00,80,00
0,000007E8,false,Rx,0,8,24,00,04,00,00,00,00,00
0,000007E8,false,Rx,0,8,10,25,61,21,00,00,00,00
0,000007E8,false,Rx,0,8,21,80,02,00,80,00,00,00
0,000007E8,false,Rx,0,8,22,00,00,00,00,00,00,00
0,000007E8,false,Rx,0,8,23,00,37,62,6C,81,E0,80
0,000007E8,false,Rx,0,8,24,00,80,00,00,00,00,00
0,000007E8,false,Rx,0,8,25,00,84,00,00,00,00,00
0,000007E8,false,Rx,0,8,10,1B,61,21,00,00,00,00
0,000007E8,false,Rx,0,8,21,80,02,00,80,00,00,00
0,000007E8,false,Rx,0,8,22,00,00,00,00,00,00,00
0,000007E8,false,Rx,0,8,23,00,39,00,02,00,10,00
0,000007E8,false,Rx,0,8,10,15,61,21,00,00,00,00
0,000007E8,false,Rx,0,8,21,80,02,00,80,00,00,00
0,000007E8,false,Rx,0,8,22,00,00,00,00,00,00,00
0,000007E8,false,Rx,0,8,23,00,00,00,00,00,00,00
0,000007E8,false,Rx,0,8,10,15,61,21,00,00,00,00
0,000007E8,false,Rx,0,8,21,80,02,00,80,00,00,00
0,000007E8,false,Rx,0,8,22,00,00,00,00,00,00,00
0,000007E8,false,Rx,0,8,23,00,00,00,00,00,00,00
0,000007E8,false,Rx,0,8,10,35,61,21,00,00,00,00
0,000007E8,false,Rx,0,8,21,80,02,00,80,00,00,00
0,000007E8,false,Rx,0,8,22,00,00,00,00,00,00,00
0,000007E8,false,Rx,0,8,23,00,51,CF,05,00,00,01
0,000007E8,false,Rx,0,8,24,00,00,6D,3F,41,41,3C
0,000007E8,false,Rx,0,8,25,3B,00,00,1A,C8,02,8B
0,000007E8,false,Rx,0,8,26,00,00,80,00,91,48,80
0,000007E8,false,Rx,0,8,27,00,80,00,80,00,00,00
0,000007E8,false,Rx,0,8,10,15,61,21,00,00,00,00
0,000007E8,false,Rx,0,8,21,80,02,00,80,00,00,00
0,000007E8,false,Rx,0,8,22,00,00,00,00,00,00,00
0,000007E8,false,Rx,0,8,23,00,00,00,00,00,00,00
0,000007E8,false,Rx,0,8,10,15,61,21,00,00,00,00
0,000007E8,false,Rx,0,8,21,80,02,00,80,00,00,00
0,000007E8,false,Rx,0,8,22,00,00,00,00,00,00,00
0,000007E8,false,Rx,0,8,23,00,00,00,00,00,00,00
0,000007E8,false,Rx,0,8,10,15,61,21,00,00,00,00
0,000007E8,false,Rx,0,8,21,80,02,00,80,00,00,00
0,000007E8,false,Rx,0,8,22,00,00,00,00,00,00,00
0,000007E8,false,Rx,0,8,23,00,00,00,00,00,00,00
0,000007E8,false,Rx,0,8,10,30,61,21,00,00,00,00
0,000007E8,false,Rx,0,8,21,80,02,00,80,00,00,00
0,000007E8,false,Rx,0,8,22,00,00,00,00,00,00,00
0,000007E8,false,Rx,0,8,23,00,01,00,00,00,00,52
0,000007E8,false,Rx,0,8,24,43,65,3D,00,00,00,00
0,000007E8,false,Rx,0,8,25,00,00,2C,7E,32,52,2C
0,000007E8,false,Rx,0,8,10,1E,61,21,00,00,00,00
0,000007E8,false,Rx,0,8,21,80,02,00,80,00,00,00
0,000007E8,false,Rx,0,8,10,2C,61,21,00,00,00,00
0,000007E8,false,Rx,0,8,21,80,02,00,80,00,00,00
0,000007E8,false,Rx,0,8,22,00,00,00,00,00,00,00
0,000007E8,false,Rx,0,8,23,00,04,3B,E6,7F,E7,69
0,000007E8,false,Rx,0,8,24,99,7F,F7,69,71,7F,E7
0,000007E8,false,Rx,0,8,10,20,61,21,00,00,00,00
```

## Analysis of the CAN bus log data

Based on the CAN bus log data there are  see several important patterns that explain the sequence mismatch issues:

### Problem Pattern 1: Multi-Frame Response Format

```text
0,000007E8,false,Rx,0,8,10,25,61,21,00,00,00,00  <- First Frame (10 = FF)
0,000007E8,false,Rx,0,8,21,80,02,00,80,00,00,00  <- Consecutive Frame 1 (21 = CF with seq=1)
0,000007E8,false,Rx,0,8,22,00,00,00,00,00,00,00  <- Consecutive Frame 2 (22 = CF with seq=2)
0,000007E8,false,Rx,0,8,23,00,37,62,6C,81,E0,80  <- Consecutive Frame 3 (23 = CF with seq=3)
0,000007E8,false,Rx,0,8,24,00,80,00,00,00,00,00  <- Consecutive Frame 4 (24 = CF with seq=4)
0,000007E8,false,Rx,0,8,25,00,84,00,00,00,00,00  <- Consecutive Frame 5 (25 = CF with seq=5)
```

### Problem Pattern 2: Back-to-Back Responses

```text
0,000007E8,false,Rx,0,8,10,15,61,21,00,00,00,00
0,000007E8,false,Rx,0,8,10,15,61,21,00,00,00,00  <- Duplicate/new response starts without delay
```

### Problem Pattern 3: Incomplete Sequences

```text
0,000007E8,false,Rx,0,8,10,1E,61,21,00,00,00,00
0,000007E8,false,Rx,0,8,10,2C,61,21,00,00,00,00  <- New response starts before previous completes
```

### Root Causes of Your Sequence Mismatches

- No Flow Control from Your Side: The ECU is sending responses without waiting for flow control frames from your device, suggesting it's using a different ISO-TP implementation that doesn't require FC frames for these responses.
- Back-to-Back Responses: The ECU sometimes sends a new First Frame immediately after completing a previous response, without waiting for your device to be ready.
- No Inter-Message Delay: There's no pause between separate UDS transactions, causing frames from one response to be interpreted as part of the next.
- Overlapping Messages: Sometimes, a new response starts before your code has fully processed the previous one, leading to unexpected frames.

### Suggested Solutions

- Implement Special Flow Control Handling: Add logic to handle ECUs that don't wait for flow control frames.
- Add Response Boundary Detection: When a new First Frame arrives, properly end any in-progress transaction and start a fresh one, even if the previous one wasn't complete.
- Enhanced Response Filtering: In your receive() function, add logic to detect and handle frame type mismatches better - particularly the sudden appearance of a First Frame when expecting Consecutive Frames.
- Use a Response Buffer Pool: Maintain separate buffers for each transaction ID to prevent mixing of messages if they overlap.