Time Stamp,ID,Extended,Dir,Bus,LEN,D1,D2,D3,D4,D5,D6,D7,D8
0,00000700,false,Rx,0,8,02,3E,00,00,00,00,00,00,
0,000007E2,false,Rx,0,8,01,3E,00,00,00,00,00,00,
0,000007E0,false,Rx,0,8,01,3E,00,00,00,00,00,00,
0,000007E8,false,Rx,0,8,01,7E,00,00,00,00,00,00,
0,000007E0,false,Rx,0,8,02,09,00,00,00,00,00,00,
0,000007E8,false,Rx,0,8,06,49,00,54,40,00,00,00,
0,000007E0,false,Rx,0,8,02,09,02,00,00,00,00,00,
0,000007E8,false,Rx,0,8,10,14,49,02,01,FF,FF,FF,
0,000007E0,false,Rx,0,8,30,00,01,00,00,00,00,00,
0,000007E8,false,Rx,0,8,21,FF,FF,FF,FF,FF,FF,FF,
0,000007E8,false,Rx,0,8,22,FF,FF,FF,FF,FF,FF,FF,
0,000007E0,false,Rx,0,8,02,21,C1,00,00,00,00,00,
0,000007E8,false,Rx,0,8,10,15,61,C1,55,53,45,32,
0,000007E0,false,Rx,0,8,30,00,01,00,00,00,00,00,
0,000007E8,false,Rx,0,8,21,23,20,20,32,55,52,47,
0,000007E8,false,Rx,0,8,22,53,45,08,80,57,6D,01,
0,000007E8,false,Rx,0,8,23,00,00,00,00,00,00,00,
0,000007E0,false,Rx,0,8,01,3E,00,00,00,00,00,00,
0,000007E8,false,Rx,0,8,01,7E,00,00,00,00,00,00,
0,000007E0,false,Rx,0,8,02,A8,01,00,00,00,00,00,
0,000007E8,false,Rx,0,8,10,38,E8,01,00,04,FF,FF,
0,000007E0,false,Rx,0,8,30,00,01,00,00,00,00,00,
0,000007E8,false,Rx,0,8,21,FF,FF,01,1D,FF,FF,FF,
0,000007E8,false,Rx,0,8,22,FF,FF,00,FF,00,FF,FF,
0,000007E8,false,Rx,0,8,23,FF,FF,FF,FF,FF,FF,FF,
0,000007E8,false,Rx,0,8,24,FF,FF,FF,FF,FF,FF,FF,
0,000007E8,false,Rx,0,8,25,FF,FF,FF,FF,00,02,02,
0,000007E8,false,Rx,0,8,26,FF,FF,03,0B,FF,FF,FF,
0,000007E8,false,Rx,0,8,27,FF,FF,FF,FF,00,FF,00,
0,000007E8,false,Rx,0,8,28,00,00,00,00,00,00,00,
0,000007E8,false,Rx,0,8,10,2E,E8,01,04,1A,FF,FF,
0,000007E0,false,Rx,0,8,30,00,01,00,00,00,00,00,
0,000007E8,false,Rx,0,8,21,FF,FF,FF,FF,FF,FF,FF,
0,000007E8,false,Rx,0,8,22,FF,FF,FF,FF,FF,FF,FF,
0,000007E8,false,Rx,0,8,23,FF,FF,00,00,FF,FF,00,
0,000007E8,false,Rx,0,8,24,00,FF,FF,05,0E,FF,FF,
0,000007E8,false,Rx,0,8,25,00,00,00,00,FF,FF,FF,
0,000007E8,false,Rx,0,8,26,FF,FF,FF,FF,FF,00,00,
0,000007E8,false,Rx,0,8,10,3E,E8,01,06,12,FF,FF,
0,000007E0,false,Rx,0,8,30,00,01,00,00,00,00,00,
0,000007E8,false,Rx,0,8,21,FF,FF,FF,FF,FF,FF,00,
0,000007E8,false,Rx,0,8,22,00,00,00,FF,FF,00,00,
0,000007E8,false,Rx,0,8,23,00,00,20,04,FF,FF,FF,
0,000007E8,false,Rx,0,8,24,FF,21,20,FF,FF,FF,00,
0,000007E8,false,Rx,0,8,25,00,00,00,00,00,FF,FC,
0,000007E8,false,Rx,0,8,26,00,FF,FF,FF,FF,FF,FF,
0,000007E8,false,Rx,0,8,27,FF,FF,FF,FF,FF,FF,FF,
0,000007E8,false,Rx,0,8,28,FE,00,00,00,00,00,00,
0,000007E8,false,Rx,0,8,10,38,E8,01,22,0F,00,00,
0,000007E0,false,Rx,0,8,30,00,01,00,00,00,00,00,
0,000007E8,false,Rx,0,8,21,00,00,00,00,00,00,FF,
0,000007E8,false,Rx,0,8,22,FF,FF,FF,FF,FF,80,23,
0,000007E8,false,Rx,0,8,23,02,FF,FF,24,01,80,25,
0,000007E8,false,Rx,0,8,24,0D,46,18,00,80,F0,E0,
0,000007E8,false,Rx,0,8,25,30,00,14,00,20,CC,00,
0,000007E8,false,Rx,0,8,26,26,0D,46,18,00,80,F0,
0,000007E8,false,Rx,0,8,27,E0,30,00,14,00,20,CC,
0,000007E8,false,Rx,0,8,28,00,00,00,00,00,00,00,
0,000007E8,false,Rx,0,8,10,26,E8,01,33,22,FF,FF,
0,000007E0,false,Rx,0,8,30,00,01,00,00,00,00,00,
0,000007E8,false,Rx,0,8,21,FF,FF,FF,FF,FF,FF,FF,
0,000007E8,false,Rx,0,8,22,FF,00,00,00,00,00,00,
0,000007E8,false,Rx,0,8,23,00,00,00,00,00,00,00,
0,000007E8,false,Rx,0,8,24,00,00,00,00,00,00,00,
0,000007E8,false,Rx,0,8,25,00,00,00,00,00,00,00,
0,000007E8,false,Rx,0,8,10,28,E8,01,37,18,FF,FF,
0,000007E0,false,Rx,0,8,30,00,01,00,00,00,00,00,
0,000007E8,false,Rx,0,8,21,00,00,00,00,00,00,FF,
0,000007E8,false,Rx,0,8,22,FF,FF,FF,FF,FF,FF,FF,
0,000007E8,false,Rx,0,8,23,00,00,FF,FF,20,C7,80,
0,000007E8,false,Rx,0,8,24,00,39,0A,20,12,00,02,
0,000007E8,false,Rx,0,8,25,30,03,00,00,00,00,00,
0,000007E8,false,Rx,0,8,10,3F,E8,01,3A,1E,00,00,
0,000007E0,false,Rx,0,8,30,00,01,00,00,00,00,00,
0,000007E8,false,Rx,0,8,21,00,00,00,00,00,00,00,
0,000007E8,false,Rx,0,8,22,00,00,00,00,FF,FF,00,
0,000007E8,false,Rx,0,8,23,00,FF,FF,FF,FF,00,00,
0,000007E8,false,Rx,0,8,24,00,00,FF,FF,FF,FF,0C,
0,000007E8,false,Rx,0,8,25,3C,15,FF,FF,FF,FF,FF,
0,000007E8,false,Rx,0,8,26,FF,FF,FF,FF,FF,FF,FF,
0,000007E8,false,Rx,0,8,27,FF,FF,FF,FF,FF,FF,00,
0,000007E8,false,Rx,0,8,28,FF,80,40,04,FF,FF,FF,
0,000007E8,false,Rx,0,8,29,FF,00,00,00,00,00,00,
0,000007E8,false,Rx,0,8,10,38,E8,01,41,15,FF,FF,
0,000007E0,false,Rx,0,8,30,00,01,00,00,00,00,00,
0,000007E8,false,Rx,0,8,21,FF,FF,FF,FF,FF,FF,FF,
0,000007E8,false,Rx,0,8,22,FF,FF,FF,FF,FF,FF,FF,
0,000007E8,false,Rx,0,8,23,FF,FF,00,00,FC,44,1D,
0,000007E8,false,Rx,0,8,24,00,00,00,00,FF,FF,00,
0,000007E8,false,Rx,0,8,25,00,00,00,FF,FF,FF,FF,
0,000007E8,false,Rx,0,8,26,FF,FF,FF,FF,FF,FF,FF,
0,000007E8,false,Rx,0,8,27,FF,FF,FF,FF,FF,FF,FF,
0,000007E8,false,Rx,0,8,28,C0,00,00,00,00,00,00,
0,000007E8,false,Rx,0,8,10,1E,E8,01,45,1A,FF,FF,
0,000007E0,false,Rx,0,8,30,00,01,00,00,00,00,00,
0,000007E8,false,Rx,0,8,21,FF,00,00,FF,FF,FF,FF,
0,000007E8,false,Rx,0,8,22,FF,FF,FF,FF,00,00,00,
0,000007E8,false,Rx,0,8,23,00,FF,FF,FF,FF,FF,FF,
0,000007E8,false,Rx,0,8,24,00,00,00,00,00,00,00,
0,000007E8,false,Rx,0,8,10,3D,E8,01,51,25,FF,FF,
0,000007E0,false,Rx,0,8,30,00,01,00,00,00,00,00,
0,000007E8,false,Rx,0,8,21,FF,FF,FF,FF,FF,FF,FF,
0,000007E8,false,Rx,0,8,22,FF,FF,FF,FF,FF,FF,FF,
0,000007E8,false,Rx,0,8,23,FF,FF,FF,FF,FF,FF,FF,
0,000007E8,false,Rx,0,8,24,FF,FF,FF,FF,00,FF,FF,
0,000007E8,false,Rx,0,8,25,00,00,00,00,00,BC,80,
0,000007E8,false,Rx,0,8,26,52,12,FF,FF,FF,FF,FF,
0,000007E8,false,Rx,0,8,27,FF,FF,FF,00,00,00,00,
0,000007E8,false,Rx,0,8,28,FF,FF,FF,FF,FF,FF,00,
0,000007E8,false,Rx,0,8,10,30,E8,01,54,1A,FF,FF,
0,000007E0,false,Rx,0,8,30,00,01,00,00,00,00,00,
0,000007E8,false,Rx,0,8,21,FF,FF,FF,FF,FF,FF,FF,
0,000007E8,false,Rx,0,8,22,FF,FF,FF,FF,FF,FF,FF,
0,000007E8,false,Rx,0,8,23,00,00,00,00,00,00,00,
0,000007E8,false,Rx,0,8,24,00,FF,FF,60,04,FF,FF,
0,000007E8,false,Rx,0,8,25,FF,FF,80,04,FF,FF,FF,
0,000007E8,false,Rx,0,8,26,FF,A0,04,FF,FF,FF,FF,
0,000007E8,false,Rx,0,8,10,3C,E8,01,A1,38,00,00,
0,000007E0,false,Rx,0,8,30,00,01,00,00,00,00,00,
0,000007E8,false,Rx,0,8,21,00,00,00,00,00,00,00,
0,000007E8,false,Rx,0,8,22,00,00,00,FF,FF,FF,FF,
0,000007E8,false,Rx,0,8,23,FF,FF,FF,FF,FF,FF,FF,
0,000007E8,false,Rx,0,8,24,FF,FF,FF,FF,FF,FF,FF,
0,000007E8,false,Rx,0,8,25,FF,FF,FF,FF,FF,FF,00,
0,000007E8,false,Rx,0,8,26,00,00,00,00,00,00,00,
0,000007E8,false,Rx,0,8,27,00,00,00,00,00,00,00,
0,000007E8,false,Rx,0,8,28,00,00,00,00,00,00,00,
0,000007E8,false,Rx,0,8,10,3A,E8,01,A4,36,00,00,
0,000007E0,false,Rx,0,8,30,00,01,00,00,00,00,00,
0,000007E8,false,Rx,0,8,21,00,00,00,00,00,00,00,
0,000007E8,false,Rx,0,8,22,00,00,00,00,00,FF,FF,
0,000007E8,false,Rx,0,8,23,00,00,00,00,FF,FF,FF,
0,000007E8,false,Rx,0,8,24,FF,00,00,00,00,00,00,
0,000007E8,false,Rx,0,8,25,00,00,00,00,00,00,00,
0,000007E8,false,Rx,0,8,26,00,00,00,00,00,00,00,
0,000007E8,false,Rx,0,8,27,00,00,00,00,00,00,00,
0,000007E8,false,Rx,0,8,28,00,00,00,00,00,00,00,
0,000007E8,false,Rx,0,8,10,1E,E8,01,A7,1A,FF,FF,
0,000007E0,false,Rx,0,8,30,00,01,00,00,00,00,00,
0,000007E8,false,Rx,0,8,21,FF,FF,FF,FF,FF,FF,FF,
0,000007E8,false,Rx,0,8,22,FF,FF,FF,00,00,00,00,
0,000007E8,false,Rx,0,8,23,00,00,00,00,00,00,00,
0,000007E8,false,Rx,0,8,24,00,00,00,00,00,00,00,
0,000007E8,false,Rx,0,8,10,2E,E8,01,A8,22,FF,FF,
0,000007E0,false,Rx,0,8,30,00,01,00,00,00,00,00,
0,000007E8,false,Rx,0,8,21,FF,FF,FF,FF,FF,FF,FF,
0,000007E8,false,Rx,0,8,22,FF,FF,FF,FF,FF,FF,FF,
0,000007E8,false,Rx,0,8,23,FF,FF,FF,00,00,00,00,
0,000007E8,false,Rx,0,8,24,FF,FF,FF,FF,FF,FF,FF,
0,000007E8,false,Rx,0,8,25,FF,FF,00,FF,AC,06,FF,
0,000007E8,false,Rx,0,8,26,FF,00,00,FF,FF,00,00,
0,000007E8,false,Rx,0,8,10,34,E8,01,AD,26,FF,00,
0,000007E0,false,Rx,0,8,30,00,01,00,00,00,00,00,
0,000007E8,false,Rx,0,8,21,00,00,00,00,00,FF,FF,
0,000007E8,false,Rx,0,8,22,FF,FF,00,00,FF,FF,FF,
0,000007E8,false,Rx,0,8,23,FF,00,00,FF,00,00,00,
0,000007E8,false,Rx,0,8,24,00,00,00,FF,FF,FF,FF,
0,000007E8,false,Rx,0,8,25,FF,FF,FF,FF,FF,FF,FF,
0,000007E8,false,Rx,0,8,26,FF,B1,08,FF,FF,FF,FF,
0,000007E8,false,Rx,0,8,27,FF,FF,FF,1F,00,00,00,
0,000007E8,false,Rx,0,8,10,38,E8,01,B2,0B,FF,00,
0,000007E0,false,Rx,0,8,30,00,01,00,00,00,00,00,
0,000007E8,false,Rx,0,8,21,00,00,00,00,00,00,00,
0,000007E8,false,Rx,0,8,22,00,00,C0,04,FF,FF,FF,
0,000007E8,false,Rx,0,8,23,FF,C1,13,FF,FF,FF,FF,
0,000007E8,false,Rx,0,8,24,FF,FF,FF,FF,FF,FF,FF,
0,000007E8,false,Rx,0,8,25,FF,FF,FF,FF,FF,FF,3F,
0,000007E8,false,Rx,0,8,26,80,C2,0C,FF,FF,FF,FF,
0,000007E8,false,Rx,0,8,27,FF,FF,FF,FF,FF,FF,FF,
0,000007E8,false,Rx,0,8,28,FF,00,00,00,00,00,00,
0,000007E8,false,Rx,0,8,10,28,E8,01,C9,08,00,00,
0,000007E0,false,Rx,0,8,30,00,01,00,00,00,00,00,
0,000007E8,false,Rx,0,8,21,00,00,FE,E0,00,00,E0,
0,000007E8,false,Rx,0,8,22,04,FF,FF,FF,FF,E1,08,
0,000007E8,false,Rx,0,8,23,FF,FF,00,00,00,00,00,
0,000007E8,false,Rx,0,8,24,00,E2,05,FF,FF,FF,FF,
0,000007E8,false,Rx,0,8,25,E0,E3,03,A7,03,00,00,
0,000007E0,false,Rx,0,8,02,21,C2,00,00,00,00,00,
0,000007E8,false,Rx,0,8,10,0E,61,C2,35,33,46,32,
0,000007E0,false,Rx,0,8,30,00,01,00,00,00,00,00,
0,000007E8,false,Rx,0,8,21,30,00,21,03,04,D1,11,
0,000007E8,false,Rx,0,8,22,00,00,00,00,00,00,00,
0,000007E1,false,Rx,0,8,01,3E,00,00,00,00,00,00,
0,000007E9,false,Rx,0,8,01,7E,00,00,00,00,00,00,
0,000007E1,false,Rx,0,8,02,A8,01,00,00,00,00,00,
0,000007E9,false,Rx,0,8,10,3F,E8,01,00,04,FF,FF,
0,000007E1,false,Rx,0,8,30,00,01,00,00,00,00,00,
0,000007E9,false,Rx,0,8,21,FF,FF,01,1D,FF,00,00,
0,000007E9,false,Rx,0,8,22,00,00,00,00,00,00,FF,
0,000007E9,false,Rx,0,8,23,FF,FF,FF,FF,FF,00,FF,
0,000007E9,false,Rx,0,8,24,00,00,00,00,FF,FF,FF,
0,000007E9,false,Rx,0,8,25,FF,FF,FF,FF,00,02,02,
0,000007E9,false,Rx,0,8,26,FF,FF,06,12,FF,FF,FF,
0,000007E9,false,Rx,0,8,27,FF,00,FF,FF,FF,00,00,
0,000007E9,false,Rx,0,8,28,00,00,FF,FF,00,00,00,
0,000007E9,false,Rx,0,8,29,00,00,00,00,00,00,00,
0,000007E9,false,Rx,0,8,10,37,E8,01,20,04,FF,FF,
0,000007E1,false,Rx,0,8,30,00,01,00,00,00,00,00,
0,000007E9,false,Rx,0,8,21,FF,FF,22,0F,FF,FF,FF,
0,000007E9,false,Rx,0,8,22,FF,FF,FF,00,00,00,00,
0,000007E9,false,Rx,0,8,23,00,00,00,00,00,25,0D,
0,000007E9,false,Rx,0,8,24,04,10,00,00,F0,E0,00,
0,000007E9,false,Rx,0,8,25,80,00,00,00,04,00,26,
0,000007E9,false,Rx,0,8,26,0D,04,10,00,00,F0,E0,
0,000007E9,false,Rx,0,8,27,00,80,00,00,00,04,00,
0,000007E9,false,Rx,0,8,10,3A,E8,01,39,0A,00,00,
0,000007E1,false,Rx,0,8,30,00,01,00,00,00,00,00,
0,000007E9,false,Rx,0,8,21,00,02,00,00,00,00,00,
0,000007E9,false,Rx,0,8,22,00,40,04,FF,FF,FF,FF,
0,000007E9,false,Rx,0,8,23,60,04,FF,FF,FF,FF,80,
0,000007E9,false,Rx,0,8,24,04,FF,FF,FF,FF,81,18,
0,000007E9,false,Rx,0,8,25,FF,FF,FF,00,00,00,00,
0,000007E9,false,Rx,0,8,26,00,00,00,00,00,FF,FF,
0,000007E9,false,Rx,0,8,27,FF,00,00,00,00,00,00,
0,000007E9,false,Rx,0,8,28,FF,FF,FF,00,00,00,00,
0,000007E9,false,Rx,0,8,10,3A,E8,01,82,0A,FF,FF,
0,000007E1,false,Rx,0,8,30,00,01,00,00,00,00,00,
0,000007E9,false,Rx,0,8,21,00,00,00,00,00,00,00,
0,000007E9,false,Rx,0,8,22,00,83,03,80,00,00,85,
0,000007E9,false,Rx,0,8,23,04,FF,A0,18,00,A0,04,
0,000007E9,false,Rx,0,8,24,FF,FF,FF,FF,C0,04,FF,
0,000007E9,false,Rx,0,8,25,FF,FF,FF,C1,13,FF,FF,
0,000007E9,false,Rx,0,8,26,FF,FF,FF,FF,FF,FF,FF,
0,000007E9,false,Rx,0,8,27,FF,FF,FF,FF,FF,FF,FF,
0,000007E9,false,Rx,0,8,28,FF,3F,80,00,00,00,00,
0,000007E9,false,Rx,0,8,10,36,E8,01,C2,0C,FF,FF,
0,000007E1,false,Rx,0,8,30,00,01,00,00,00,00,00,
0,000007E9,false,Rx,0,8,21,FF,FF,FF,FF,FF,FF,FF,
0,000007E9,false,Rx,0,8,22,FF,FF,FF,C9,08,00,00,
0,000007E9,false,Rx,0,8,23,00,00,00,00,FF,FF,E0,
0,000007E9,false,Rx,0,8,24,04,FF,FF,FF,FF,E1,08,
0,000007E9,false,Rx,0,8,25,FF,FF,00,00,00,00,00,
0,000007E9,false,Rx,0,8,26,00,E2,05,FF,FF,FF,FF,
0,000007E9,false,Rx,0,8,27,E0,E3,03,A0,00,00,00,
0,000007E1,false,Rx,0,8,02,21,C2,00,00,00,00,00,
0,000007E9,false,Rx,0,8,10,0E,61,C2,35,33,30,38,
0,000007E1,false,Rx,0,8,30,00,01,00,00,00,00,00,
0,000007E9,false,Rx,0,8,21,30,00,21,03,04,00,00,
0,000007E9,false,Rx,0,8,22,00,00,00,00,00,00,00,
0,000007A2,false,Rx,0,8,01,3E,00,00,00,00,00,00,
0,000007A2,false,Rx,0,8,01,3E,00,00,00,00,00,00,
0,000007A1,false,Rx,0,8,01,3E,00,00,00,00,00,00,
0,000007A1,false,Rx,0,8,01,3E,00,00,00,00,00,00,
0,000007A1,false,Rx,0,8,01,3E,00,00,00,00,00,00,
0,000007D0,false,Rx,0,8,01,3E,00,00,00,00,00,00,
0,000007D0,false,Rx,0,8,01,3E,00,00,00,00,00,00,
0,000007D0,false,Rx,0,8,01,3E,00,00,00,00,00,00,
0,000007E0,false,Rx,0,8,01,3E,00,00,00,00,00,00,
0,000007E8,false,Rx,0,8,01,7E,00,00,00,00,00,00,
0,000007E0,false,Rx,0,8,02,A8,01,00,00,00,00,00,
0,000007E8,false,Rx,0,8,10,38,E8,01,00,04,FF,FF,
0,000007E0,false,Rx,0,8,30,00,01,00,00,00,00,00,
0,000007E8,false,Rx,0,8,21,FF,FF,01,1D,FF,FF,FF,
0,000007E8,false,Rx,0,8,22,FF,FF,00,FF,00,FF,FF,
0,000007E8,false,Rx,0,8,23,FF,FF,FF,FF,FF,FF,FF,
0,000007E8,false,Rx,0,8,24,FF,FF,FF,FF,FF,FF,FF,
0,000007E8,false,Rx,0,8,25,FF,FF,FF,FF,00,02,02,
0,000007E8,false,Rx,0,8,26,FF,FF,03,0B,FF,FF,FF,
0,000007E8,false,Rx,0,8,27,FF,FF,FF,FF,00,FF,00,
0,000007E8,false,Rx,0,8,28,00,00,00,00,00,00,00,
0,000007E8,false,Rx,0,8,10,2E,E8,01,04,1A,FF,FF,
0,000007E0,false,Rx,0,8,30,00,01,00,00,00,00,00,
0,000007E8,false,Rx,0,8,21,FF,FF,FF,FF,FF,FF,FF,
0,000007E8,false,Rx,0,8,22,FF,FF,FF,FF,FF,FF,FF,
0,000007E8,false,Rx,0,8,23,FF,FF,00,00,FF,FF,00,
0,000007E8,false,Rx,0,8,24,00,FF,FF,05,0E,FF,FF,
0,000007E8,false,Rx,0,8,25,00,00,00,00,FF,FF,FF,
0,000007E8,false,Rx,0,8,26,FF,FF,FF,FF,FF,00,00,
0,000007E8,false,Rx,0,8,10,3E,E8,01,06,12,FF,FF,
0,000007E0,false,Rx,0,8,30,00,01,00,00,00,00,00,
0,000007E8,false,Rx,0,8,21,FF,FF,FF,FF,FF,FF,00,
0,000007E8,false,Rx,0,8,22,00,00,00,FF,FF,00,00,
0,000007E8,false,Rx,0,8,23,00,00,20,04,FF,FF,FF,
0,000007E8,false,Rx,0,8,24,FF,21,20,FF,FF,FF,00,
0,000007E8,false,Rx,0,8,25,00,00,00,00,00,FF,FC,
0,000007E8,false,Rx,0,8,26,00,FF,FF,FF,FF,FF,FF,
0,000007E8,false,Rx,0,8,27,FF,FF,FF,FF,FF,FF,FF,
0,000007E8,false,Rx,0,8,28,FE,00,00,00,00,00,00,
0,000007E8,false,Rx,0,8,10,38,E8,01,22,0F,00,00,
0,000007E0,false,Rx,0,8,30,00,01,00,00,00,00,00,
0,000007E8,false,Rx,0,8,21,00,00,00,00,00,00,FF,
0,000007E8,false,Rx,0,8,22,FF,FF,FF,FF,FF,80,23,
0,000007E8,false,Rx,0,8,23,02,FF,FF,24,01,80,25,
0,000007E8,false,Rx,0,8,24,0D,46,18,00,80,F0,E0,
0,000007E8,false,Rx,0,8,25,30,00,14,00,20,CC,00,
0,000007E8,false,Rx,0,8,26,26,0D,46,18,00,80,F0,
0,000007E8,false,Rx,0,8,27,E0,30,00,14,00,20,CC,
0,000007E8,false,Rx,0,8,28,00,00,00,00,00,00,00,
0,000007E8,false,Rx,0,8,10,26,E8,01,33,22,FF,FF,
0,000007E0,false,Rx,0,8,30,00,01,00,00,00,00,00,
0,000007E8,false,Rx,0,8,21,FF,FF,FF,FF,FF,FF,FF,
0,000007E8,false,Rx,0,8,22,FF,00,00,00,00,00,00,
0,000007E8,false,Rx,0,8,23,00,00,00,00,00,00,00,
0,000007E8,false,Rx,0,8,24,00,00,00,00,00,00,00,
0,000007E8,false,Rx,0,8,25,00,00,00,00,00,00,00,
0,000007E8,false,Rx,0,8,10,28,E8,01,37,18,FF,FF,
0,000007E0,false,Rx,0,8,30,00,01,00,00,00,00,00,
0,000007E8,false,Rx,0,8,21,00,00,00,00,00,00,FF,
0,000007E8,false,Rx,0,8,22,FF,FF,FF,FF,FF,FF,FF,
0,000007E8,false,Rx,0,8,23,00,00,FF,FF,20,C7,80,
0,000007E8,false,Rx,0,8,24,00,39,0A,20,12,00,02,
0,000007E8,false,Rx,0,8,25,30,03,00,00,00,00,00,
0,000007E8,false,Rx,0,8,10,3F,E8,01,3A,1E,00,00,
0,000007E0,false,Rx,0,8,30,00,01,00,00,00,00,00,
0,000007E8,false,Rx,0,8,21,00,00,00,00,00,00,00,
0,000007E8,false,Rx,0,8,22,00,00,00,00,FF,FF,00,
0,000007E8,false,Rx,0,8,23,00,FF,FF,FF,FF,00,00,
0,000007E8,false,Rx,0,8,24,00,00,FF,FF,FF,FF,0C,
0,000007E8,false,Rx,0,8,25,3C,15,FF,FF,FF,FF,FF,
0,000007E8,false,Rx,0,8,26,FF,FF,FF,FF,FF,FF,FF,
0,000007E8,false,Rx,0,8,27,FF,FF,FF,FF,FF,FF,00,
0,000007E8,false,Rx,0,8,28,FF,80,40,04,FF,FF,FF,
0,000007E8,false,Rx,0,8,29,FF,00,00,00,00,00,00,
0,000007E8,false,Rx,0,8,10,38,E8,01,41,15,FF,FF,
0,000007E0,false,Rx,0,8,30,00,01,00,00,00,00,00,
0,000007E8,false,Rx,0,8,21,FF,FF,FF,FF,FF,FF,FF,
0,000007E8,false,Rx,0,8,22,FF,FF,FF,FF,FF,FF,FF,
0,000007E8,false,Rx,0,8,23,FF,FF,00,00,FC,44,1D,
0,000007E8,false,Rx,0,8,24,00,00,00,00,FF,FF,00,
0,000007E8,false,Rx,0,8,25,00,00,00,FF,FF,FF,FF,
0,000007E8,false,Rx,0,8,26,FF,FF,FF,FF,FF,FF,FF,
0,000007E8,false,Rx,0,8,27,FF,FF,FF,FF,FF,FF,FF,
0,000007E8,false,Rx,0,8,28,C0,00,00,00,00,00,00,
0,000007E8,false,Rx,0,8,10,1E,E8,01,45,1A,FF,FF,
0,000007E0,false,Rx,0,8,30,00,01,00,00,00,00,00,
0,000007E8,false,Rx,0,8,21,FF,00,00,FF,FF,FF,FF,
0,000007E8,false,Rx,0,8,22,FF,FF,FF,FF,00,00,00,
0,000007E8,false,Rx,0,8,23,00,FF,FF,FF,FF,FF,FF,
0,000007E8,false,Rx,0,8,24,00,00,00,00,00,00,00,
0,000007E8,false,Rx,0,8,10,3D,E8,01,51,25,FF,FF,
0,000007E0,false,Rx,0,8,30,00,01,00,00,00,00,00,
0,000007E8,false,Rx,0,8,21,FF,FF,FF,FF,FF,FF,FF,
0,000007E8,false,Rx,0,8,22,FF,FF,FF,FF,FF,FF,FF,
0,000007E8,false,Rx,0,8,23,FF,FF,FF,FF,FF,FF,FF,
0,000007E8,false,Rx,0,8,24,FF,FF,FF,FF,00,FF,FF,
0,000007E8,false,Rx,0,8,25,00,00,00,00,00,BC,80,
0,000007E8,false,Rx,0,8,26,52,12,FF,FF,FF,FF,FF,
0,000007E8,false,Rx,0,8,27,FF,FF,FF,00,00,00,00,
0,000007E8,false,Rx,0,8,28,FF,FF,FF,FF,FF,FF,00,
0,000007E8,false,Rx,0,8,10,30,E8,01,54,1A,FF,FF,
0,000007E0,false,Rx,0,8,30,00,01,00,00,00,00,00,
0,000007E8,false,Rx,0,8,21,FF,FF,FF,FF,FF,FF,FF,
0,000007E8,false,Rx,0,8,22,FF,FF,FF,FF,FF,FF,FF,
0,000007E8,false,Rx,0,8,23,00,00,00,00,00,00,00,
0,000007E8,false,Rx,0,8,24,00,FF,FF,60,04,FF,FF,
0,000007E8,false,Rx,0,8,25,FF,FF,80,04,FF,FF,FF,
0,000007E8,false,Rx,0,8,26,FF,A0,04,FF,FF,FF,FF,
0,000007E8,false,Rx,0,8,10,3C,E8,01,A1,38,00,00,
0,000007E0,false,Rx,0,8,30,00,01,00,00,00,00,00,
0,000007E8,false,Rx,0,8,21,00,00,00,00,00,00,00,
0,000007E8,false,Rx,0,8,22,00,00,00,FF,FF,FF,FF,
0,000007E8,false,Rx,0,8,23,FF,FF,FF,FF,FF,FF,FF,
0,000007E8,false,Rx,0,8,24,FF,FF,FF,FF,FF,FF,FF,
0,000007E8,false,Rx,0,8,25,FF,FF,FF,FF,FF,FF,00,
0,000007E8,false,Rx,0,8,26,00,00,00,00,00,00,00,
0,000007E8,false,Rx,0,8,27,00,00,00,00,00,00,00,
0,000007E8,false,Rx,0,8,28,00,00,00,00,00,00,00,
0,000007E8,false,Rx,0,8,10,3A,E8,01,A4,36,00,00,
0,000007E0,false,Rx,0,8,30,00,01,00,00,00,00,00,
0,000007E8,false,Rx,0,8,21,00,00,00,00,00,00,00,
0,000007E8,false,Rx,0,8,22,00,00,00,00,00,FF,FF,
0,000007E8,false,Rx,0,8,23,00,00,00,00,FF,FF,FF,
0,000007E8,false,Rx,0,8,24,FF,00,00,00,00,00,00,
0,000007E8,false,Rx,0,8,25,00,00,00,00,00,00,00,
0,000007E8,false,Rx,0,8,26,00,00,00,00,00,00,00,
0,000007E8,false,Rx,0,8,27,00,00,00,00,00,00,00,
0,000007E8,false,Rx,0,8,28,00,00,00,00,00,00,00,
0,000007E8,false,Rx,0,8,10,1E,E8,01,A7,1A,FF,FF,
0,000007E0,false,Rx,0,8,30,00,01,00,00,00,00,00,
0,000007E8,false,Rx,0,8,21,FF,FF,FF,FF,FF,FF,FF,
0,000007E8,false,Rx,0,8,22,FF,FF,FF,00,00,00,00,
0,000007E8,false,Rx,0,8,23,00,00,00,00,00,00,00,
0,000007E8,false,Rx,0,8,24,00,00,00,00,00,00,00,
0,000007E8,false,Rx,0,8,10,2E,E8,01,A8,22,FF,FF,
0,000007E0,false,Rx,0,8,30,00,01,00,00,00,00,00,
0,000007E8,false,Rx,0,8,21,FF,FF,FF,FF,FF,FF,FF,
0,000007E8,false,Rx,0,8,22,FF,FF,FF,FF,FF,FF,FF,
0,000007E8,false,Rx,0,8,23,FF,FF,FF,00,00,00,00,
0,000007E8,false,Rx,0,8,24,FF,FF,FF,FF,FF,FF,FF,
0,000007E8,false,Rx,0,8,25,FF,FF,00,FF,AC,06,FF,
0,000007E8,false,Rx,0,8,26,FF,00,00,FF,FF,00,00,
0,000007E8,false,Rx,0,8,10,34,E8,01,AD,26,FF,00,
0,000007E0,false,Rx,0,8,30,00,01,00,00,00,00,00,
0,000007E8,false,Rx,0,8,21,00,00,00,00,00,FF,FF,
0,000007E8,false,Rx,0,8,22,FF,FF,00,00,FF,FF,FF,
0,000007E8,false,Rx,0,8,23,FF,00,00,FF,00,00,00,
0,000007E8,false,Rx,0,8,24,00,00,00,FF,FF,FF,FF,
0,000007E8,false,Rx,0,8,25,FF,FF,FF,FF,FF,FF,FF,
0,000007E8,false,Rx,0,8,26,FF,B1,08,FF,FF,FF,FF,
0,000007E8,false,Rx,0,8,27,FF,FF,FF,1F,00,00,00,
0,000007E8,false,Rx,0,8,10,38,E8,01,B2,0B,FF,00,
0,000007E0,false,Rx,0,8,30,00,01,00,00,00,00,00,
0,000007E8,false,Rx,0,8,21,00,00,00,00,00,00,00,
0,000007E8,false,Rx,0,8,22,00,00,C0,04,FF,FF,FF,
0,000007E8,false,Rx,0,8,23,FF,C1,13,FF,FF,FF,FF,
0,000007E8,false,Rx,0,8,24,FF,FF,FF,FF,FF,FF,FF,
0,000007E8,false,Rx,0,8,25,FF,FF,FF,FF,FF,FF,3F,
0,000007E8,false,Rx,0,8,26,80,C2,0C,FF,FF,FF,FF,
0,000007E8,false,Rx,0,8,27,FF,FF,FF,FF,FF,FF,FF,
0,000007E8,false,Rx,0,8,28,FF,00,00,00,00,00,00,
0,000007E8,false,Rx,0,8,10,28,E8,01,C9,08,00,00,
0,000007E0,false,Rx,0,8,30,00,01,00,00,00,00,00,
0,000007E8,false,Rx,0,8,21,00,00,FE,E0,00,00,E0,
0,000007E8,false,Rx,0,8,22,04,FF,FF,FF,FF,E1,08,
0,000007E8,false,Rx,0,8,23,FF,FF,00,00,00,00,00,
0,000007E8,false,Rx,0,8,24,00,E2,05,FF,FF,FF,FF,
0,000007E8,false,Rx,0,8,25,E0,E3,03,A7,03,00,00,
0,000007E0,false,Rx,0,8,02,21,C2,00,00,00,00,00,
0,000007E8,false,Rx,0,8,10,0E,61,C2,35,33,46,32,
0,000007E0,false,Rx,0,8,30,00,01,00,00,00,00,00,
0,000007E8,false,Rx,0,8,21,30,00,21,03,04,D1,11,
0,000007E8,false,Rx,0,8,22,00,00,00,00,00,00,00,
0,000007E0,false,Rx,0,8,01,3E,00,00,00,00,00,00,
0,000007E8,false,Rx,0,8,01,7E,00,00,00,00,00,00,
0,000007E0,false,Rx,0,8,02,AA,00,00,00,00,00,00,
0,000007E8,false,Rx,0,8,03,7F,AA,11,00,00,00,00,
0,000007A2,false,Rx,0,8,01,3E,00,00,00,00,00,00,
0,000007A1,false,Rx,0,8,01,3E,00,00,00,00,00,00,
0,000007E0,false,Rx,0,8,01,3E,00,00,00,00,00,00,
0,000007E8,false,Rx,0,8,01,7E,00,00,00,00,00,00,
0,000007E0,false,Rx,0,8,02,A8,02,00,00,00,00,00,
0,000007E8,false,Rx,0,8,10,3D,E8,02,00,04,FF,FF,
0,000007E0,false,Rx,0,8,30,00,01,00,00,00,00,00,
0,000007E8,false,Rx,0,8,21,FF,FF,01,01,FF,04,02,
0,000007E8,false,Rx,0,8,22,20,20,05,02,12,12,09,
0,000007E8,false,Rx,0,8,23,04,03,03,00,00,0B,02,
0,000007E8,false,Rx,0,8,24,30,30,0C,01,FF,0D,01,
0,000007E8,false,Rx,0,8,25,FF,0F,02,FF,FF,13,02,
0,000007E8,false,Rx,0,8,26,FF,FF,15,02,03,03,17,
0,000007E8,false,Rx,0,8,27,01,FF,1C,03,FF,FF,01,
0,000007E8,false,Rx,0,8,28,1D,04,00,00,FF,FF,00,
0,000007E8,false,Rx,0,8,10,0F,E8,02,1F,02,FF,FF,
0,000007E0,false,Rx,0,8,30,00,01,00,00,00,00,00,
0,000007E8,false,Rx,0,8,21,20,04,FF,FF,FF,FF,2E,
0,000007E8,false,Rx,0,8,22,01,FF,00,00,00,00,00,
0,000007E0,false,Rx,0,8,02,21,C1,00,00,00,00,00,
0,000007E8,false,Rx,0,8,10,15,61,C1,55,53,45,32,
0,000007E0,false,Rx,0,8,30,00,01,00,00,00,00,00,
0,000007E8,false,Rx,0,8,21,23,20,20,32,55,52,47,
0,000007E8,false,Rx,0,8,22,53,45,08,80,57,6D,01,
0,000007E8,false,Rx,0,8,23,00,00,00,00,00,00,00,
0,000007E0,false,Rx,0,8,02,01,20,00,00,00,00,00,
0,000007E8,false,Rx,0,8,06,41,20,B1,05,B1,1F,00,
0,000007E0,false,Rx,0,8,01,07,00,00,00,00,00,00,
0,000007E8,false,Rx,0,8,06,47,02,03,35,13,40,00,
0,000007E0,false,Rx,0,8,02,21,E1,00,00,00,00,00,
0,000007E8,false,Rx,0,8,04,61,E1,01,01,00,00,00,
0,000007E0,false,Rx,0,8,02,21,E2,00,00,00,00,00,
0,000007E8,false,Rx,0,8,07,61,E2,F6,F7,D9,F3,00,
0,000007E0,false,Rx,0,8,01,3E,00,00,00,00,00,00,
0,000007E8,false,Rx,0,8,01,7E,00,00,00,00,00,00,
0,000007E0,false,Rx,0,8,02,21,20,00,00,00,00,00,
0,000007E8,false,Rx,0,8,06,61,20,FC,00,22,D1,00,
0,000007E0,false,Rx,0,8,01,3E,00,00,00,00,00,00,
0,000007E8,false,Rx,0,8,01,7E,00,00,00,00,00,00,
0,000007E0,false,Rx,0,8,02,10,5F,00,00,00,00,00,
0,000007E8,false,Rx,0,8,02,50,01,00,00,00,00,00,
0,000007E0,false,Rx,0,8,01,07,00,00,00,00,00,00,
0,000007E8,false,Rx,0,8,06,47,02,03,35,13,40,00,
0,000007E0,false,Rx,0,8,04,12,0E,01,02,00,00,00,
0,000007E8,false,Rx,0,8,03,7F,12,12,00,00,00,00,
0,000007E0,false,Rx,0,8,04,12,0E,01,02,00,00,00,
0,000007E8,false,Rx,0,8,03,7F,12,12,00,00,00,00,
0,000007E0,false,Rx,0,8,02,13,B0,00,00,00,00,00,
0,000007E8,false,Rx,0,8,04,53,01,03,35,00,00,00,
0,000007E0,false,Rx,0,8,04,12,00,01,02,00,00,00,
0,000007E8,false,Rx,0,8,06,52,00,03,35,01,02,00,
0,000007E0,false,Rx,0,8,04,12,01,01,02,00,00,00,
0,000007E8,false,Rx,0,8,06,52,01,03,35,01,02,00,
0,000007E0,false,Rx,0,8,04,12,0F,01,02,00,00,00,
0,000007E8,false,Rx,0,8,06,52,0F,00,00,01,02,00,
0,000007E0,false,Rx,0,8,02,13,80,00,00,00,00,00,
0,000007E8,false,Rx,0,8,04,53,01,03,35,00,00,00,
0,000007E0,false,Rx,0,8,04,12,00,01,02,00,00,00,
0,000007E8,false,Rx,0,8,06,52,00,03,35,01,02,00,
0,000007E0,false,Rx,0,8,04,12,01,01,02,00,00,00,
0,000007E8,false,Rx,0,8,06,52,01,03,35,01,02,00,
0,000007E0,false,Rx,0,8,04,12,0F,01,02,00,00,00,
0,000007E8,false,Rx,0,8,06,52,0F,00,00,01,02,00,
0,000007E0,false,Rx,0,8,02,21,00,00,00,00,00,00,
0,000007E8,false,Rx,0,8,06,61,00,BC,00,00,01,00,
0,000007E0,false,Rx,0,8,02,21,40,00,00,00,00,00,
0,000007E8,false,Rx,0,8,06,61,40,98,00,D0,01,00,
0,000007E0,false,Rx,0,8,02,21,60,00,00,00,00,00,
0,000007E8,false,Rx,0,8,06,61,60,00,00,00,01,00,
0,000007E0,false,Rx,0,8,02,21,80,00,00,00,00,00,
0,000007E8,false,Rx,0,8,06,61,80,00,00,00,01,00,
0,000007E0,false,Rx,0,8,02,21,A0,00,00,00,00,00,
0,000007E8,false,Rx,0,8,06,61,A0,93,18,C0,01,00,
0,000007E0,false,Rx,0,8,02,21,C0,00,00,00,00,00,
0,000007E8,false,Rx,0,8,06,61,C0,C0,80,00,01,00,
0,000007E0,false,Rx,0,8,02,21,E0,00,00,00,00,00,
0,000007E8,false,Rx,0,8,06,61,E0,E0,00,00,00,00,
0,000007E0,false,Rx,0,8,02,21,C2,00,00,00,00,00,
0,000007E8,false,Rx,0,8,10,0E,61,C2,35,33,46,32,
0,000007E0,false,Rx,0,8,30,00,01,00,00,00,00,00,
0,000007E8,false,Rx,0,8,21,30,00,21,03,04,D1,11,
0,000007E8,false,Rx,0,8,22,00,00,00,00,00,00,00,
0,000007E0,false,Rx,0,8,04,12,10,01,02,00,00,00,
0,000007E8,false,Rx,0,8,06,52,10,03,35,01,02,00,
0,000007E0,false,Rx,0,8,04,12,F0,01,02,00,00,00,
0,000007E8,false,Rx,0,8,06,52,F0,03,35,01,02,00,
0,000007E0,false,Rx,0,8,04,12,E0,01,02,00,00,00,
0,000007E8,false,Rx,0,8,06,52,E0,03,35,01,02,00,
0,000007E0,false,Rx,0,8,04,12,D0,01,02,00,00,00,
0,000007E8,false,Rx,0,8,06,52,D0,03,35,01,02,00,
0,000007E0,false,Rx,0,8,02,01,00,00,00,00,00,00,
0,000007E8,false,Rx,0,8,06,41,00,BF,9F,A8,93,00,
0,000007E0,false,Rx,0,8,02,01,01,00,00,00,00,00,
0,000007E8,false,Rx,0,8,06,41,01,81,07,21,21,00,
0,000007E0,false,Rx,0,8,02,01,01,00,00,00,00,00,
0,000007E8,false,Rx,0,8,06,41,01,81,07,21,21,00,
0,000007E0,false,Rx,0,8,02,06,00,00,00,00,00,00,
0,000007E8,false,Rx,0,8,06,46,00,CC,00,00,01,00,
0,000007E0,false,Rx,0,8,02,06,20,00,00,00,00,00,
0,000007E8,false,Rx,0,8,06,46,20,C0,00,00,01,00,
0,000007E0,false,Rx,0,8,02,06,40,00,00,00,00,00,
0,000007E8,false,Rx,0,8,06,46,40,00,00,00,01,00,
0,000007E0,false,Rx,0,8,02,06,60,00,00,00,00,00,
0,000007E8,false,Rx,0,8,06,46,60,00,00,00,01,00,
0,000007E0,false,Rx,0,8,02,06,80,00,00,00,00,00,
0,000007E8,false,Rx,0,8,06,46,80,00,00,00,01,00,
0,000007E0,false,Rx,0,8,02,06,A0,00,00,00,00,00,
0,000007E8,false,Rx,0,8,06,46,A0,FF,80,00,00,00,
0,000007E0,false,Rx,0,8,01,07,00,00,00,00,00,00,
0,000007E8,false,Rx,0,8,06,47,02,03,35,13,40,00,
0,000007E0,false,Rx,0,8,04,12,0E,01,02,00,00,00,
0,000007E8,false,Rx,0,8,03,7F,12,12,00,00,00,00,
0,000007E0,false,Rx,0,8,04,12,0E,01,02,00,00,00,
0,000007E8,false,Rx,0,8,03,7F,12,12,00,00,00,00,
0,000007E0,false,Rx,0,8,02,13,B0,00,00,00,00,00,
0,000007E8,false,Rx,0,8,04,53,01,03,35,00,00,00,
0,000007E0,false,Rx,0,8,04,12,00,01,02,00,00,00,
0,000007E8,false,Rx,0,8,06,52,00,03,35,01,02,00,
0,000007E0,false,Rx,0,8,04,12,01,01,02,00,00,00,
0,000007E8,false,Rx,0,8,06,52,01,03,35,01,02,00,
0,000007E0,false,Rx,0,8,04,12,0F,01,02,00,00,00,
0,000007E8,false,Rx,0,8,06,52,0F,00,00,01,02,00,
0,000007E0,false,Rx,0,8,02,13,80,00,00,00,00,00,
0,000007E8,false,Rx,0,8,04,53,01,03,35,00,00,00,
0,000007E0,false,Rx,0,8,04,12,00,01,02,00,00,00,
0,000007E8,false,Rx,0,8,06,52,00,03,35,01,02,00,
0,000007E0,false,Rx,0,8,04,12,01,01,02,00,00,00,
0,000007E8,false,Rx,0,8,06,52,01,03,35,01,02,00,
0,000007E0,false,Rx,0,8,04,12,0F,01,02,00,00,00,
0,000007E8,false,Rx,0,8,06,52,0F,00,00,01,02,00,
0,000007E0,false,Rx,0,8,02,21,C2,00,00,00,00,00,
0,000007E8,false,Rx,0,8,10,0E,61,C2,35,33,46,32,
0,000007E0,false,Rx,0,8,30,00,01,00,00,00,00,00,
0,000007E8,false,Rx,0,8,21,30,00,21,03,04,D1,11,
0,000007E8,false,Rx,0,8,22,00,00,00,00,00,00,00,
0,000007E0,false,Rx,0,8,04,12,10,01,02,00,00,00,
0,000007E8,false,Rx,0,8,06,52,10,03,35,01,02,00,
0,000007E0,false,Rx,0,8,04,12,F0,01,02,00,00,00,
0,000007E8,false,Rx,0,8,06,52,F0,03,35,01,02,00,
0,000007E0,false,Rx,0,8,04,12,E0,01,02,00,00,00,
0,000007E8,false,Rx,0,8,06,52,E0,03,35,01,02,00,
0,000007E0,false,Rx,0,8,04,12,D0,01,02,00,00,00,
0,000007E8,false,Rx,0,8,06,52,D0,03,35,01,02,00,
0,000007E0,false,Rx,0,8,02,01,01,00,00,00,00,00,
0,000007E8,false,Rx,0,8,06,41,01,81,07,21,21,00,
0,000007E0,false,Rx,0,8,02,01,01,00,00,00,00,00,
0,000007E8,false,Rx,0,8,06,41,01,81,07,21,21,00,
0,000007E0,false,Rx,0,8,01,07,00,00,00,00,00,00,
0,000007E8,false,Rx,0,8,06,47,02,03,35,13,40,00,
0,000007E0,false,Rx,0,8,04,12,0E,01,02,00,00,00,
0,000007E8,false,Rx,0,8,03,7F,12,12,00,00,00,00,
0,000007E0,false,Rx,0,8,04,12,0E,01,02,00,00,00,
0,000007E8,false,Rx,0,8,03,7F,12,12,00,00,00,00,
0,000007E0,false,Rx,0,8,02,13,B0,00,00,00,00,00,
0,000007E8,false,Rx,0,8,04,53,01,03,35,00,00,00,
0,000007E0,false,Rx,0,8,04,12,00,01,02,00,00,00,
0,000007E8,false,Rx,0,8,06,52,00,03,35,01,02,00,
0,000007E0,false,Rx,0,8,04,12,01,01,02,00,00,00,
0,000007E8,false,Rx,0,8,06,52,01,03,35,01,02,00,
0,000007E0,false,Rx,0,8,04,12,0F,01,02,00,00,00,
0,000007E8,false,Rx,0,8,06,52,0F,00,00,01,02,00,
0,000007E0,false,Rx,0,8,02,13,80,00,00,00,00,00,
0,000007E8,false,Rx,0,8,04,53,01,03,35,00,00,00,
0,000007E0,false,Rx,0,8,04,12,00,01,02,00,00,00,
0,000007E8,false,Rx,0,8,06,52,00,03,35,01,02,00,
0,000007E0,false,Rx,0,8,04,12,01,01,02,00,00,00,
0,000007E8,false,Rx,0,8,06,52,01,03,35,01,02,00,
0,000007E0,false,Rx,0,8,04,12,0F,01,02,00,00,00,
0,000007E8,false,Rx,0,8,06,52,0F,00,00,01,02,00,
0,000007E0,false,Rx,0,8,02,21,C2,00,00,00,00,00,
0,000007E8,false,Rx,0,8,10,0E,61,C2,35,33,46,32,
0,000007E0,false,Rx,0,8,30,00,01,00,00,00,00,00,
0,000007E8,false,Rx,0,8,21,30,00,21,03,04,D1,11,
0,000007E8,false,Rx,0,8,22,00,00,00,00,00,00,00,
0,000007E0,false,Rx,0,8,04,12,10,01,02,00,00,00,
0,000007E8,false,Rx,0,8,06,52,10,03,35,01,02,00,
0,000007E0,false,Rx,0,8,04,12,F0,01,02,00,00,00,
0,000007E8,false,Rx,0,8,06,52,F0,03,35,01,02,00,
0,000007E0,false,Rx,0,8,04,12,E0,01,02,00,00,00,
0,000007E8,false,Rx,0,8,06,52,E0,03,35,01,02,00,
0,000007E0,false,Rx,0,8,04,12,D0,01,02,00,00,00,
0,000007E8,false,Rx,0,8,06,52,D0,03,35,01,02,00,
0,000007E0,false,Rx,0,8,02,01,01,00,00,00,00,00,
0,000007E8,false,Rx,0,8,06,41,01,81,07,21,21,00,
0,000007E0,false,Rx,0,8,02,01,01,00,00,00,00,00,
0,000007E8,false,Rx,0,8,06,41,01,81,07,21,21,00,
0,000007E0,false,Rx,0,8,01,07,00,00,00,00,00,00,
0,000007E8,false,Rx,0,8,06,47,02,03,35,13,40,00,
0,000007E0,false,Rx,0,8,04,12,0E,01,02,00,00,00,
0,000007E8,false,Rx,0,8,03,7F,12,12,00,00,00,00,
0,000007E0,false,Rx,0,8,04,12,0E,01,02,00,00,00,
0,000007E8,false,Rx,0,8,03,7F,12,12,00,00,00,00,
0,000007E0,false,Rx,0,8,02,13,B0,00,00,00,00,00,
0,000007E8,false,Rx,0,8,04,53,01,03,35,00,00,00,
0,000007E0,false,Rx,0,8,04,12,00,01,02,00,00,00,
0,000007E8,false,Rx,0,8,06,52,00,03,35,01,02,00,
0,000007E0,false,Rx,0,8,04,12,01,01,02,00,00,00,
0,000007E8,false,Rx,0,8,06,52,01,03,35,01,02,00,
0,000007E0,false,Rx,0,8,04,12,0F,01,02,00,00,00,
0,000007E8,false,Rx,0,8,06,52,0F,00,00,01,02,00,
0,000007E0,false,Rx,0,8,02,13,80,00,00,00,00,00,
0,000007E8,false,Rx,0,8,04,53,01,03,35,00,00,00,
0,000007E0,false,Rx,0,8,04,12,00,01,02,00,00,00,
0,000007E8,false,Rx,0,8,06,52,00,03,35,01,02,00,
0,000007E0,false,Rx,0,8,04,12,01,01,02,00,00,00,
0,000007E8,false,Rx,0,8,06,52,01,03,35,01,02,00,
0,000007E0,false,Rx,0,8,04,12,0F,01,02,00,00,00,
0,000007E8,false,Rx,0,8,06,52,0F,00,00,01,02,00,
0,000007E0,false,Rx,0,8,02,21,C2,00,00,00,00,00,
0,000007E8,false,Rx,0,8,10,0E,61,C2,35,33,46,32,
0,000007E0,false,Rx,0,8,30,00,01,00,00,00,00,00,
0,000007E8,false,Rx,0,8,21,30,00,21,03,04,D1,11,
0,000007E8,false,Rx,0,8,22,00,00,00,00,00,00,00,
0,000007E0,false,Rx,0,8,04,12,10,01,02,00,00,00,
0,000007E8,false,Rx,0,8,06,52,10,03,35,01,02,00,
0,000007E0,false,Rx,0,8,04,12,F0,01,02,00,00,00,
0,000007E8,false,Rx,0,8,06,52,F0,03,35,01,02,00,
0,000007E0,false,Rx,0,8,04,12,E0,01,02,00,00,00,
0,000007E8,false,Rx,0,8,06,52,E0,03,35,01,02,00,
0,000007E0,false,Rx,0,8,04,12,D0,01,02,00,00,00,
0,000007E8,false,Rx,0,8,06,52,D0,03,35,01,02,00,
0,000007E0,false,Rx,0,8,02,01,01,00,00,00,00,00,
0,000007E8,false,Rx,0,8,06,41,01,81,07,21,21,00,
0,000007E0,false,Rx,0,8,02,01,01,00,00,00,00,00,
0,000007E8,false,Rx,0,8,06,41,01,81,07,21,21,00,
0,000007E0,false,Rx,0,8,01,07,00,00,00,00,00,00,
0,000007E8,false,Rx,0,8,06,47,02,03,35,13,40,00,
0,000007E0,false,Rx,0,8,04,12,0E,01,02,00,00,00,
0,000007E8,false,Rx,0,8,03,7F,12,12,00,00,00,00,
0,000007E0,false,Rx,0,8,04,12,0E,01,02,00,00,00,
0,000007E8,false,Rx,0,8,03,7F,12,12,00,00,00,00,
0,000007E0,false,Rx,0,8,02,13,B0,00,00,00,00,00,
0,000007E8,false,Rx,0,8,04,53,01,03,35,00,00,00,
0,000007E0,false,Rx,0,8,04,12,00,01,02,00,00,00,
0,000007E8,false,Rx,0,8,06,52,00,03,35,01,02,00,
0,000007E0,false,Rx,0,8,04,12,01,01,02,00,00,00,
0,000007E8,false,Rx,0,8,06,52,01,03,35,01,02,00,
0,000007E0,false,Rx,0,8,04,12,0F,01,02,00,00,00,
0,000007E8,false,Rx,0,8,06,52,0F,00,00,01,02,00,
0,000007E0,false,Rx,0,8,02,13,80,00,00,00,00,00,
0,000007E8,false,Rx,0,8,04,53,01,03,35,00,00,00,
0,000007E0,false,Rx,0,8,04,12,00,01,02,00,00,00,
0,000007E8,false,Rx,0,8,06,52,00,03,35,01,02,00,
0,000007E0,false,Rx,0,8,04,12,01,01,02,00,00,00,
0,000007E8,false,Rx,0,8,06,52,01,03,35,01,02,00,
0,000007E0,false,Rx,0,8,04,12,0F,01,02,00,00,00,
0,000007E8,false,Rx,0,8,06,52,0F,00,00,01,02,00,
0,000007E0,false,Rx,0,8,02,21,C2,00,00,00,00,00,
0,000007E8,false,Rx,0,8,10,0E,61,C2,35,33,46,32,
0,000007E0,false,Rx,0,8,30,00,01,00,00,00,00,00,
0,000007E8,false,Rx,0,8,21,30,00,21,03,04,D1,11,
0,000007E8,false,Rx,0,8,22,00,00,00,00,00,00,00,
0,000007E0,false,Rx,0,8,04,12,10,01,02,00,00,00,
0,000007E8,false,Rx,0,8,06,52,10,03,35,01,02,00,
0,000007E0,false,Rx,0,8,04,12,F0,01,02,00,00,00,
0,000007E8,false,Rx,0,8,06,52,F0,03,35,01,02,00,
0,000007E0,false,Rx,0,8,04,12,E0,01,02,00,00,00,
0,000007E8,false,Rx,0,8,06,52,E0,03,35,01,02,00,
0,000007E0,false,Rx,0,8,04,12,D0,01,02,00,00,00,
0,000007E8,false,Rx,0,8,06,52,D0,03,35,01,02,00,
0,000007E0,false,Rx,0,8,02,01,01,00,00,00,00,00,
0,000007E8,false,Rx,0,8,06,41,01,81,07,21,21,00,
0,000007E0,false,Rx,0,8,02,01,01,00,00,00,00,00,
0,000007E8,false,Rx,0,8,06,41,01,81,07,21,21,00,
0,000007E0,false,Rx,0,8,01,07,00,00,00,00,00,00,
0,000007E8,false,Rx,0,8,06,47,02,03,35,13,40,00,
0,000007E0,false,Rx,0,8,04,12,0E,01,02,00,00,00,
0,000007E8,false,Rx,0,8,03,7F,12,12,00,00,00,00,
0,000007E0,false,Rx,0,8,04,12,0E,01,02,00,00,00,
0,000007E8,false,Rx,0,8,03,7F,12,12,00,00,00,00,
0,000007E0,false,Rx,0,8,02,13,B0,00,00,00,00,00,
0,000007E8,false,Rx,0,8,04,53,01,03,35,00,00,00,
0,000007E0,false,Rx,0,8,04,12,00,01,02,00,00,00,
0,000007E8,false,Rx,0,8,06,52,00,03,35,01,02,00,
0,000007E0,false,Rx,0,8,04,12,01,01,02,00,00,00,
0,000007E8,false,Rx,0,8,06,52,01,03,35,01,02,00,
0,000007E0,false,Rx,0,8,04,12,0F,01,02,00,00,00,
0,000007E8,false,Rx,0,8,06,52,0F,00,00,01,02,00,
